(1629833838.691097) can1 100#00000E610000102F
(1629833838.691572) can1 101#000010EB0000113C
(1629833838.692059) can1 102#00001093000010A6
(1629833838.692552) can1 103#000010AC00001068
(1629833839.692660) can1 100#00000E610000102F
(1629833839.693148) can1 101#000010F100001136
(1629833839.693618) can1 102#00001093000010A6
(1629833839.694118) can1 103#000010A60000106E
(1629833840.702126) can1 100#00000E610000102F
(1629833840.702605) can1 101#000010F10000113C
(1629833840.703109) can1 102#0000108D000010A0
(1629833840.703620) can1 103#000010AC0000106E
(1629833841.719494) can1 100#00000E610000102F
(1629833841.719995) can1 101#000010F10000113C
(1629833841.720478) can1 102#00001093000010AC
(1629833841.720965) can1 103#000010AC0000106E
(1629833842.721095) can1 100#00000E610000102F
(1629833842.721579) can1 101#000010EB0000113C
(1629833842.722063) can1 102#0000108D000010A6
(1629833842.722549) can1 103#000010AC0000106E
(1629833843.730581) can1 100#00000E610000102F
(1629833843.731061) can1 101#000010F10000113C
(1629833843.731551) can1 102#00001093000010A0
(1629833843.732077) can1 103#000010AC0000106E
(1629833844.747962) can1 100#00000E610000102F
(1629833844.748440) can1 101#000010F10000113C
(1629833844.748930) can1 102#0000108D000010AC
(1629833844.749419) can1 103#000010A60000106E
(1629833845.749577) can1 100#00000E6100001036
(1629833845.750059) can1 101#000010F10000113C
(1629833845.750544) can1 102#00001093000010A6
(1629833845.751014) can1 103#000010B300001074
(1629833846.759103) can1 100#00000E610000102F
(1629833846.759575) can1 101#000010F10000113C
(1629833846.760061) can1 102#0000109A000010A6
(1629833846.760552) can1 103#000010B30000106E
(1629833847.776537) can1 100#00000E6100001036
(1629833847.777012) can1 101#000010F70000113C
(1629833847.777500) can1 102#0000109A000010A6
(1629833847.777988) can1 103#000010B30000106E
(1629833848.778126) can1 100#00000E6100001036
(1629833848.778607) can1 101#000010F70000113C
(1629833848.779087) can1 102#0000109A000010A6
(1629833848.779584) can1 103#000010B30000106E
(1629833849.787663) can1 100#00000E610000102F
(1629833849.788138) can1 101#000010F10000113C
(1629833849.788637) can1 102#0000109A000010AC
(1629833849.789113) can1 103#000010B300001074
(1629833850.805349) can1 100#00000E6D0000102F
(1629833850.805844) can1 101#000010F70000113C
(1629833850.806315) can1 102#0000109A000010A6
(1629833850.806802) can1 103#000010B300001074
(1629833851.811062) can1 100#00000E6100001036
(1629833851.811531) can1 101#000010F70000113C
(1629833851.812028) can1 102#0000109A000010B3
(1629833851.812513) can1 103#000010B300001074
(1629833852.825507) can1 100#00000E6700001036
(1629833852.825979) can1 101#000010F100001142
(1629833852.826467) can1 102#0000109A000010AC
(1629833852.826996) can1 103#000010AC00001074
(1629833853.847590) can1 100#00000E6700001036
(1629833853.848085) can1 101#000010FE00001142
(1629833853.848569) can1 102#000010A0000010AC
(1629833853.849055) can1 103#000010B300001074
(1629833854.853591) can1 100#00000E670000102F
(1629833854.854119) can1 101#000010F700001142
(1629833854.854567) can1 102#0000109A000010B3
(1629833854.855057) can1 103#000010B300001081
(1629833855.867279) can1 100#00000E670000102F
(1629833855.867768) can1 101#000010F700001142
(1629833855.868260) can1 102#0000109A000010B3
(1629833855.868751) can1 103#000010B30000107A
(1629833856.888668) can1 100#00000E6D0000102F
(1629833856.889137) can1 101#000010F700001142
(1629833856.889626) can1 102#000010A0000010B3
(1629833856.890116) can1 103#000010B90000107A
(1629833857.894004) can1 100#00000E6D0000102F
(1629833857.894515) can1 101#000010F700001142
(1629833857.894959) can1 102#000010A0000010B3
(1629833857.895453) can1 103#000010B90000107A
(1629833858.908052) can1 100#00000E6D00001036
(1629833858.908497) can1 101#000010F70000113C
(1629833858.908982) can1 102#000010A0000010B3
(1629833858.909479) can1 103#000010B900001081
(1629833859.927842) can1 100#00000E6D0000102F
(1629833859.928318) can1 101#000010F100001142
(1629833859.928810) can1 102#000010A0000010B3
(1629833859.929314) can1 103#000010B300001081
(1629833860.932617) can1 100#00000E6700001036
(1629833860.933103) can1 101#000010F700001142
(1629833860.933595) can1 102#000010A0000010B9
(1629833860.934102) can1 103#000010B30000107A
(1629833861.945162) can1 100#00000E6D0000102F
(1629833861.945644) can1 101#000010F700001142
(1629833861.946144) can1 102#000010A0000010B9
(1629833861.946631) can1 103#000010B30000107A
(1629833862.957557) can1 100#00000E6700001029
(1629833862.958042) can1 101#000010F700001142
(1629833862.958533) can1 102#000010A0000010B9
(1629833862.959026) can1 103#000010B90000107A
(1629833863.969800) can1 100#00000E670000102F
(1629833863.970281) can1 101#000010F700001142
(1629833863.970773) can1 102#000010A0000010B9
(1629833863.971261) can1 103#000010B90000107A
(1629833864.981925) can1 100#00000E6700001029
(1629833864.982406) can1 101#000010F700001149
(1629833864.982913) can1 102#000010A0000010B9
(1629833864.983441) can1 103#000010B90000107A
(1629833866.001812) can1 100#00000E6D0000102F
(1629833866.002302) can1 101#000010F700001142
(1629833866.002793) can1 102#000010A0000010B9
(1629833866.003283) can1 103#000010B90000107A
(1629833867.005781) can1 100#00000E6D0000102F
(1629833867.006298) can1 101#000010FE00001142
(1629833867.006763) can1 102#000010A0000010B9
(1629833867.007254) can1 103#000010B900001081
(1629833868.017555) can1 100#00000E6D0000102F
(1629833868.018046) can1 101#000010F700001142
(1629833868.018527) can1 102#000010A6000010B9
(1629833868.019019) can1 103#000010B90000107A
(1629833869.037135) can1 100#00000E740000102F
(1629833869.037619) can1 101#000010F700001142
(1629833869.038106) can1 102#000010A0000010B3
(1629833869.038592) can1 103#000010B900001081
(1629833870.041760) can1 100#00000E7400001036
(1629833870.042242) can1 101#000010F700001149
(1629833870.042724) can1 102#000010A6000010B3
(1629833870.043220) can1 103#000010B900001081
(1629833871.052274) can1 100#00000E7400001036
(1629833871.052759) can1 101#000010F700001142
(1629833871.053254) can1 102#000010A6000010B9
(1629833871.053751) can1 103#000010BF0000107A
(1629833872.071586) can1 100#00000E7400001029
(1629833872.072077) can1 101#000010F100001142
(1629833872.072563) can1 102#000010A6000010B3
(1629833872.073050) can1 103#000010B900001081
(1629833873.074992) can1 100#00000E6D0000102F
(1629833873.075470) can1 101#000010F700001142
(1629833873.075963) can1 102#000010A6000010B3
(1629833873.076455) can1 103#000010B90000107A
(1629833874.086263) can1 100#00000E6D00001036
(1629833874.086729) can1 101#000010F700001142
(1629833874.087217) can1 102#000010A6000010B9
(1629833874.087723) can1 103#000010B90000107A
(1629833875.097417) can1 100#00000E6D0000102F
(1629833875.097903) can1 101#000010F700001142
(1629833875.098401) can1 102#000010A6000010BF
(1629833875.098887) can1 103#000010B900001081
(1629833876.108533) can1 100#00000E740000102F
(1629833876.109072) can1 101#000010F700001142
(1629833876.109507) can1 102#000010A6000010B9
(1629833876.109998) can1 103#000010B90000107A
(1629833877.119590) can1 100#00000E6D0000102F
(1629833877.120071) can1 101#000010F700001149
(1629833877.120557) can1 102#000010AC000010B9
(1629833877.121050) can1 103#000010B900001081
(1629833878.138486) can1 100#00000E7A00001029
(1629833878.139002) can1 101#000010F700001142
(1629833878.139470) can1 102#000010A6000010BF
(1629833878.139958) can1 103#000010B900001081
(1629833879.141533) can1 100#00000E7400001036
(1629833879.142019) can1 101#000010F700001142
(1629833879.142512) can1 102#000010AC000010BF
(1629833879.143004) can1 103#000010BF00001081
(1629833880.152431) can1 100#00000E7400001036
(1629833880.152961) can1 101#000010FE00001149
(1629833880.153407) can1 102#000010AC000010B9
(1629833880.153891) can1 103#000010B900001087
(1629833881.171202) can1 100#00000E7A0000102F
(1629833881.171682) can1 101#000010F700001142
(1629833881.172191) can1 102#000010A6000010BF
(1629833881.172672) can1 103#000010B900001087
(1629833882.174088) can1 100#00000E7A00001036
(1629833882.174632) can1 101#000010FE00001142
(1629833882.175070) can1 102#000010A6000010B9
(1629833882.175549) can1 103#000010B900001087
(1629833883.184851) can1 100#00000E7400001036
(1629833883.185335) can1 101#000010F700001142
(1629833883.185821) can1 102#000010A6000010B9
(1629833883.186322) can1 103#000010BF00001087
(1629833884.203488) can1 100#00000E7A00001036
(1629833884.203983) can1 101#000010FE00001142
(1629833884.204509) can1 102#000010A6000010BF
(1629833884.204968) can1 103#000010B900001087
(1629833885.206274) can1 100#00000E7A00001036
(1629833885.206819) can1 101#000010FE00001142
(1629833885.207246) can1 102#000010AC000010B9
(1629833885.207745) can1 103#000010BF00001087
(1629833886.216934) can1 100#00000E7A00001036
(1629833886.217468) can1 101#000010FE00001149
(1629833886.217910) can1 102#000010A6000010B9
(1629833886.218402) can1 103#000010BF00001081
(1629833887.235459) can1 100#00000E7A00001036
(1629833887.235970) can1 101#000010FE00001142
(1629833887.236446) can1 102#000010AC000010BF
(1629833887.236942) can1 103#000010BF00001087
(1629833888.238151) can1 100#00000E7400001036
(1629833888.238681) can1 101#000010FE00001149
(1629833888.239130) can1 102#000010A6000010B9
(1629833888.239613) can1 103#000010B900001087
(1629833889.248728) can1 100#00000E7400001036
(1629833889.249220) can1 101#000010F70000114F
(1629833889.249701) can1 102#000010AC000010BF
(1629833889.250193) can1 103#000010BF00001087
(1629833890.267157) can1 100#00000E7A00001036
(1629833890.267647) can1 101#000010FE00001149
(1629833890.268136) can1 102#000010AC000010C5
(1629833890.268625) can1 103#000010BF00001087
(1629833891.269787) can1 100#00000E7A00001036
(1629833891.270271) can1 101#000010F10000114F
(1629833891.270758) can1 102#000010AC000010C5
(1629833891.271249) can1 103#000010BF00001087
(1629833892.281285) can1 100#00000E7A00001036
(1629833892.281746) can1 101#000010FE0000114F
(1629833892.282235) can1 102#000010A6000010C5
(1629833892.282718) can1 103#000010B90000108D
(1629833893.298665) can1 100#00000E7A00001036
(1629833893.299135) can1 101#000010F700001149
(1629833893.299624) can1 102#000010A6000010C5
(1629833893.300109) can1 103#000010B90000108D
(1629833894.301227) can1 100#00000E7A00001036
(1629833894.301716) can1 101#000010FE0000114F
(1629833894.302216) can1 102#000010A6000010BF
(1629833894.302703) can1 103#000010B90000108D
(1629833895.311667) can1 100#00000E7A00001036
(1629833895.312140) can1 101#000010F100001149
(1629833895.312631) can1 102#000010A6000010C5
(1629833895.313115) can1 103#000010B900001087
(1629833896.329977) can1 100#00000E7A00001036
(1629833896.330531) can1 101#000010FE00001149
(1629833896.330956) can1 102#000010A6000010C5
(1629833896.331466) can1 103#000010B90000108D
(1629833897.332481) can1 100#00000E7A00001036
(1629833897.332959) can1 101#000010F70000114F
(1629833897.333444) can1 102#000010A6000010CC
(1629833897.333946) can1 103#000010BF00001087
(1629833898.342876) can1 100#00000E7A00001036
(1629833898.343391) can1 101#000010F700001149
(1629833898.343839) can1 102#000010AC000010CC
(1629833898.344324) can1 103#000010B90000108D
(1629833899.361142) can1 100#00000E7400001036
(1629833899.361618) can1 101#000010F700001149
(1629833899.362107) can1 102#000010AC000010C5
(1629833899.362595) can1 103#000010B90000108D
(1629833900.363610) can1 100#00000E7A00001036
(1629833900.364080) can1 101#000010F700001149
(1629833900.364564) can1 102#000010AC000010CC
(1629833900.365055) can1 103#000010BF0000108D
(1629833901.373947) can1 100#00000E7A00001036
(1629833901.374429) can1 101#000010F700001149
(1629833901.374918) can1 102#000010B3000010C5
(1629833901.375411) can1 103#000010B900001093
(1629833902.392172) can1 100#00000E7A00001036
(1629833902.392664) can1 101#000010FE00001155
(1629833902.393153) can1 102#000010AC000010C5
(1629833902.393640) can1 103#000010BF00001093
(1629833903.395576) can1 100#00000E8000001036
(1629833903.396055) can1 101#000010F100001155
(1629833903.396547) can1 102#000010B3000010C5
(1629833903.397033) can1 103#000010B90000108D
(1629833904.404923) can1 100#00000E8000001036
(1629833904.405405) can1 101#000010F700001155
(1629833904.405896) can1 102#000010B3000010C5
(1629833904.406383) can1 103#000010B900001093
(1629833905.423125) can1 100#00000E7A00001036
(1629833905.423606) can1 101#000010F70000114F
(1629833905.424098) can1 102#000010B3000010C5
(1629833905.424583) can1 103#000010B90000108D
(1629833906.425533) can1 100#00000E8000001036
(1629833906.426011) can1 101#000010F100001155
(1629833906.426499) can1 102#000010B3000010C5
(1629833906.426984) can1 103#000010BF0000108D
(1629833907.435808) can1 100#00000E8000001036
(1629833907.436370) can1 101#000010FE0000114F
(1629833907.436828) can1 102#000010B3000010C5
(1629833907.437275) can1 103#000010B90000109A
(1629833908.453993) can1 100#00000E8000001036
(1629833908.454506) can1 101#000010F700001155
(1629833908.454962) can1 102#000010B3000010C5
(1629833908.455450) can1 103#000010B900001093
(1629833909.456370) can1 100#00000E8000001036
(1629833909.456848) can1 101#000010F700001155
(1629833909.457339) can1 102#000010B3000010C5
(1629833909.457822) can1 103#000010B300001093
(1629833910.466644) can1 100#00000E8000001036
(1629833910.467117) can1 101#000010F700001155
(1629833910.467601) can1 102#000010B3000010C5
(1629833910.468090) can1 103#000010BF00001093
(1629833911.484783) can1 100#00000E8000001036
(1629833911.485265) can1 101#000010F100001155
(1629833911.485755) can1 102#000010B3000010C5
(1629833911.486232) can1 103#000010B300001093
(1629833912.487147) can1 100#00000E8000001036
(1629833912.487623) can1 101#000010F700001155
(1629833912.488111) can1 102#000010AC000010C5
(1629833912.488593) can1 103#000010B30000108D
(1629833913.497396) can1 100#00000E8000001036
(1629833913.497869) can1 101#000010F700001155
(1629833913.498348) can1 102#000010B9000010C5
(1629833913.498835) can1 103#000010B90000109A
(1629833914.515572) can1 100#00000E8000001036
(1629833914.516043) can1 101#000010F700001155
(1629833914.516535) can1 102#000010B3000010C5
(1629833914.517021) can1 103#000010B90000109A
