(1626905042.645596) can1 0CF00400#507D8DD11200F48E
(1626905042.646721) can1 14F00031#CFFFFFFFFFFFFFFF
(1626905042.647892) can1 18F0233D#FFFFFFFFFF27FFFF
(1626905042.649404) can1 10FF2121#32000FC0C0FFFF00
(1626905042.652394) can1 0CF00A01#00004014FFFFFFFF
(1626905042.652983) can1 10F01A01#0000FFFFFFFFFFFF
(1626905042.653569) can1 10FCFD01#FFFFFFFF0924FFFF
(1626905042.654179) can1 18FD9401#7864FFFF770A3D02
(1626905042.654767) can1 18FDA101#2D03FFFFFFFF00FF
(1626905042.655398) can1 10FDA301#FFFFFFFFFFFFFFFF
(1626905042.656006) can1 18FDAA01#FFFFFFFFFFFFFF31
(1626905042.656551) can1 0CF00400#507D8DD11200F48E
(1626905042.657122) can1 14F00131#FFFFFFFF00FFFFFF
(1626905042.657700) can1 18F0000F#007DFFFF0F7DFFFF
(1626905042.658284) can1 18FDD001#FFFFFF0031FFFFFF
(1626905042.658876) can1 18FF2FA0#DFFFFFFFFAFFFFFF
(1626905042.659448) can1 1CFE9201#FF0071FFFFFFFFFF
(1626905042.660008) can1 18FEDB01#E623E623E623FFFF
(1626905042.660607) can1 18F00E3D#8890FFFFFFFFFFFF
(1626905042.661188) can1 18F00F3D#8890FFFFFFFFFFFF
(1626905042.661767) can1 18FD8C3D#01000500FFFFFFFF
(1626905042.662344) can1 18FDB23D#FFFF27280000FFFF
(1626905042.662940) can1 18FDB300#FFFFB626FFFFFFFF
(1626905042.663519) can1 18FDB400#DF28DF28FFFFFFFF
(1626905042.665695) can1 0CF00400#507D8DCF1200F48E
(1626905042.666314) can1 18FF3000#0000AFFFFFFFFFFF
(1626905042.666888) can1 10FE6F2A#FFFF00C0007D00FF
(1626905042.667461) can1 14FF3131#4030030000FFFFF0
(1626905042.668040) can1 0CF02FA0#01F8FAFFFFFFFFFF
(1626905042.668609) can1 14FEF121#F7FFFF0FFFFFFFFF
(1626905042.675620) can1 0CF00400#507D8DCF1200F48E
(1626905042.676216) can1 0CF00300#DD0017FFFFFF91FF
(1626905042.676775) can1 14FEF131#CFFFFFF300FFFF30
(1626905042.677366) can1 14FFA000#FCFFFFFFFFFFFFFF
(1626905042.677965) can1 18FEF200#4C0000009503FFFF
(1626905042.679219) can1 0C00000B#FCFFFAFAFFFFFFFF
(1626905042.683798) can1 0C0BA027#FDFFFFFFFFFFFF31
(1626905042.684686) can1 18FEF117#F7FFFFFFFFFFFFFF
(1626905042.685271) can1 18FF2017#0000000000000000
(1626905042.685846) can1 0CF00400#507D8DD31200F48E
(1626905042.686409) can1 18FEDF00#8C0013FF7DDC02FF
(1626905042.687003) can1 0C0A002A#C1FFFFFFFFFFFFFF
(1626905042.687574) can1 0CF00421#FFFFFFFFFFFFFFFF
(1626905042.695621) can1 0CF00400#407D8DD71200F48D
(1626905042.696588) can1 14FDA421#FFFFFFFFFFFFFFFF
(1626905042.697467) can1 18F0233D#FFFFFFFFFF27FFFF
(1626905042.698058) can1 18FD413D#FFFFFFFFFCFCFCFC
(1626905042.699461) can1 10FF2121#32000FC0C0FFFF00
(1626905042.700460) can1 0C00100B#FCFFFA00FFFFFFFF
(1626905042.702310) can1 0CF00A01#00004014FFFFFFFF
(1626905042.702902) can1 10F01A01#0000FFFFFFFFFFFF
(1626905042.705646) can1 0CF00400#307D8DDB1200F48D
(1626905042.706222) can1 0C000F0B#FCFFFA00FFFFFFFF
(1626905042.706809) can1 14FEF031#FFFFFFFFFFFC00FF
(1626905042.707393) can1 18FEF000#FFFFFFFFFFFFFFFF
(1626905042.707978) can1 18FF2FA0#DFFFFFFFFAFFFFFF
(1626905042.709422) can1 14FF2321#041CE1FFFFFFFFFF
(1626905042.709986) can1 18F00E3D#8890FFFFFFFFFFFF
(1626905042.710570) can1 18F00F3D#8890FFFFFFFFFFFF
(1626905042.711134) can1 0C00290B#FCFFFA00FFFFFFFF
(1626905042.715798) can1 0CF00400#307D8DD81200F48D
(1626905042.716375) can1 0CF02FA0#01F8FAFFFFFFFFFF
(1626905042.716951) can1 18FEBF0B#00007D7D7D7D7D7D
(1626905042.717507) can1 18FEE000#1CDD4F001CDD4F00
(1626905042.718087) can1 18FF2421#CDF0FCFFFFFFFFFF
(1626905042.718680) can1 18FECA00#03FF00000000FFFF
(1626905042.719571) can1 14FF0121#FFFFFFFFFFFFFCFF
(1626905042.726027) can1 0CF00400#507D8DD31200F48E
(1626905042.726601) can1 1CECFF0F#20130003FFE1FE00
(1626905042.727188) can1 18FE4F3E#0400FFFFFFFFFFFF
(1626905042.727763) can1 0CF00300#DD0016FFFFFF91FF
(1626905042.728352) can1 18FEF100#C700000000001F30
(1626905042.728952) can1 18FDE000#FFFFFFFF1025FFFF
(1626905042.729540) can1 14FF0221#FFFFFFFFFFFFFFFF
(1626905042.732324) can1 18F0010B#0001F0FFFF0DFFFF
(1626905042.733785) can1 0C0BA027#FDFFFFFFFFFFFF42
(1626905042.735661) can1 0CF00400#607D8DCC1200F48E
(1626905042.736244) can1 1CECFF00#20270006FFE3FE00
(1626905042.736830) can1 18FEDF00#8C0013FF7DD802FF
(1626905042.737438) can1 18FEEF00#9AFFFF66FFFFFFFA
(1626905042.738001) can1 18FDC40B#FF00FFFFFFFFFFFF
(1626905042.745597) can1 0CF00400#707D8DC61200F48E
(1626905042.746191) can1 18FCDC00#E1FEFEFFFFFFFFFF
(1626905042.746766) can1 14F00031#CFFFFFFFFFFFFFFF
(1626905042.747863) can1 18F0233D#FFFFFFFFFF28FFFF
(1626905042.749261) can1 10FF2121#32000FC0C0FFFF00
(1626905042.752388) can1 0CF00A01#00004014FFFFFFFF
(1626905042.752974) can1 10F01A01#0000FFFFFFFFFFFF
(1626905042.753562) can1 10FCFD01#FFFFFFFF0924FFFF
(1626905042.754174) can1 18FD9401#7864FFFF930A3E02
(1626905042.754763) can1 18FDA101#2D03FFFFFFFF00FF
(1626905042.755356) can1 10FDA301#FFFFFFFFFFFFFFFF
(1626905042.755974) can1 18FDAA01#FFFFFFFFFFFFFF31
(1626905042.756518) can1 0CF00400#607D8DC91200F48E
(1626905042.757088) can1 14F00131#FFFFFFFF00FFFFFF
(1626905042.757667) can1 18F0000F#007DFFFF0F7DFFFF
(1626905042.758251) can1 18FDD001#FFFFFF0031FFFFFF
(1626905042.758842) can1 18FF2FA0#DFFFFFFFFAFFFFFF
(1626905042.759414) can1 1CFE9201#FF0071FFFFFFFFFF
(1626905042.759977) can1 18FEDB01#E623E623E623FFFF
(1626905042.760549) can1 18F00E3D#8890FFFFFFFFFFFF
(1626905042.761127) can1 18F00F3D#8890FFFFFFFFFFFF
(1626905042.761751) can1 18FD8C3D#01000500FFFFFFFF
(1626905042.762327) can1 18FDB23D#FFFF27280000FFFF
(1626905042.762925) can1 18FDB300#FFFFB626FFFFFFFF
(1626905042.763502) can1 18FDB400#DF28DF28FFFFFFFF
(1626905042.765738) can1 0CF00400#607D8DCC1200F48E
(1626905042.766319) can1 14FF3131#4030030000FFFFF0
(1626905042.766895) can1 10FE6F2A#FFFF00C0007D00FF
(1626905042.767459) can1 14FEF121#F7FFFF0FFFFFFFFF
(1626905042.768031) can1 0C040B2A#FFFFCCFFFFFFFFF4
(1626905042.768623) can1 18FF3000#0000AFFFFFFFFFFF
(1626905042.769203) can1 0CF02FA0#01F8FAFFFFFFFFFF
(1626905042.775636) can1 0CF00400#607D8DCC1200F48E
(1626905042.776219) can1 1CEBFF00#010013BD801FDF20
(1626905042.776779) can1 14FEF131#CFFFFFF300FFFF30
(1626905042.777355) can1 0CF00300#DD0017FFFFFF91FF
(1626905042.777971) can1 14FFA000#FCFFFFFFFFFFFFFF
(1626905042.778567) can1 18FEF200#480000009503FFFF
(1626905042.779143) can1 18FEF500#C8FFFF6B2547FFFF
(1626905042.779723) can1 0C00000B#FCFFFAFAFFFFFFFF
(1626905042.783794) can1 0C0BA027#FDFFFFFFFFFFFF53
(1626905042.784979) can1 18FEF117#F7FFFFFFFFFFFFFF
(1626905042.785567) can1 18FF2017#0000000000000000
(1626905042.786122) can1 0CF00400#607D8DCC1200F48E
(1626905042.786715) can1 0C0A002A#C1FFFFFFFFFFFFFF
(1626905042.787292) can1 0CF00421#FFFFFFFFFFFFFFFF
(1626905042.787865) can1 18FEDF00#8C0013FF7DD802FF
(1626905042.795621) can1 0CF00400#707D8DC61200F48E
(1626905042.796192) can1 1CEBFF0F#01030360224A804D
(1626905042.796796) can1 14FDA421#FFFFFFFFFFFFFFFF
(1626905042.797339) can1 18FEEE00#4E436026FFFF47FF
(1626905042.797904) can1 18F0233D#FFFFFFFFFF28FFFF
(1626905042.798489) can1 18FD413D#FFFFFFFFFCFCFCFC
(1626905042.799805) can1 10FF2121#32000FC0C0FFFF00
(1626905042.802301) can1 0CF00A01#00004714FFFFFFFF
(1626905042.802896) can1 10F01A01#0000FFFFFFFFFFFF
(1626905042.805636) can1 0CF00400#007D8EC31200F48E
(1626905042.806248) can1 18FEF000#FFFFFFFFFFFFFFFF
(1626905042.806837) can1 14FEF031#FFFFFFFFFFFC00FF
(1626905042.807404) can1 18FEA400#FFFFFFFF207E2022
(1626905042.807989) can1 18FF2FA0#DFFFFFFFFAFFFFFF
(1626905042.809511) can1 14FF2321#041CE1FFFFFFFFFF
(1626905042.810076) can1 18F00E3D#8890FFFFFFFFFFFF
(1626905042.810660) can1 18F00F3D#8890FFFFFFFFFFFF
(1626905042.815715) can1 0CF00400#007D8EC31200F48E
(1626905042.816307) can1 14FD3E00#B026FF8626FFFFFF
(1626905042.816884) can1 0CF02FA0#01F8FAFFFFFFFFFF
(1626905042.817461) can1 18FEBF0B#00007D7D7D7D7D7D
(1626905042.818017) can1 18FEE000#1CDD4F001CDD4F00
(1626905042.819451) can1 14FF0121#FFFFFFFFFFFFFCFF
(1626905042.825825) can1 0CF00400#707D8DC51200F48E
(1626905042.826401) can1 1CEBFF00#0216C14019C6801F
(1626905042.826994) can1 0CF00300#DD0017FFFFFF91FF
(1626905042.827581) can1 18FE4F3E#0400FFFFFFFFFFFF
(1626905042.828153) can1 18FEF100#C700000000001F30
(1626905042.828757) can1 18FEBD00#00F00000FFFFFFFF
(1626905042.829565) can1 14FF0221#FFFFFFFFFFFFFFFF
(1626905042.832394) can1 18F0010B#0001F0FFFF0DFFFF
(1626905042.833782) can1 18FE5127#1DFFFFFFFFFFFFFF
(1626905042.834364) can1 0C0BA027#FDFFFFFFFFFFFF64
(1626905042.835663) can1 0CF00400#607D8DC91200F48E
(1626905042.836243) can1 18FEDF00#8C0013FF7DDE02FF
(1626905042.836860) can1 18FF7400#D500FFFFFFFCFFFF
(1626905042.837713) can1 18FDC40B#FF00FFFFFFFFFFFF
(1626905042.845594) can1 0CF00400#507D8DCD1200F48E
(1626905042.846152) can1 1CEBFF0F#0227282D2BB8421D
(1626905042.846741) can1 18FD7C00#F8F3C13030FFE3FF
(1626905042.847709) can1 14F00031#CFFFFFFFFFFFFFFF
(1626905042.848276) can1 18F0233D#FFFFFFFFFF28FFFF
(1626905042.849412) can1 10FF2121#32000FC0C0FFFF00
(1626905042.852137) can1 18FF2221#0300C30701F3FFFF
(1626905042.852705) can1 0CF00A01#00004014FFFFFFFF
(1626905042.853296) can1 10F01A01#0000FFFFFFFFFFFF
(1626905042.853883) can1 10FCFD01#FFFFFFFF0924FFFF
(1626905042.854447) can1 18FD9401#7864FFFFB50A4002
(1626905042.855031) can1 18FDA101#2D03FFFFFFFF00FF
(1626905042.855628) can1 10FDA301#FFFFFFFFFFFFFFFF
(1626905042.856216) can1 18FDAA01#FFFFFFFFFFFFFF31
(1626905042.856763) can1 0CF00400#507D8DCD1200F48E
(1626905042.857347) can1 18FDD001#FFFFFF0031FFFFFF
(1626905042.857919) can1 14F00131#FFFFFFFF00FFFFFF
(1626905042.858499) can1 18F0000F#007DFFFF0F7DFFFF
(1626905042.859084) can1 18FF2FA0#DFFFFFFFFAFFFFFF
(1626905042.859643) can1 18FEF600#FF004731FFDC28FF
(1626905042.860224) can1 1CFE9201#FF0071FFFFFFFFFF
(1626905042.860807) can1 18FEE400#007FFFFC007FFFFF
(1626905042.861359) can1 18FEDB01#E623E623E623FFFF
(1626905042.861955) can1 18F00E3D#8890FFFFFFFFFFFF
(1626905042.862549) can1 18F00F3D#8890FFFFFFFFFFFF
(1626905042.863140) can1 18FD8C3D#01000500FFFFFFFF
(1626905042.863719) can1 18FDB23D#FFFF27280000FFFF
(1626905042.864311) can1 18FDB300#FFFFB626FFFFFFFF
(1626905042.864895) can1 18FDB400#DF28DF28FFFFFFFF
(1626905042.865816) can1 0CF00400#507D8DCD1200F48E
(1626905042.866388) can1 10FE6F2A#FFFF00C0007D00FF
(1626905042.866972) can1 14FF3131#4030030000FFFFF0
(1626905042.867547) can1 0CF02FA0#01F8FAFFFFFFFFFF
(1626905042.868115) can1 14FEF121#F7FFFF0FFFFFFFFF
(1626905042.868708) can1 18FF3000#0000AFFFFFFFFFFF
(1626905042.875628) can1 0CF00400#607D8DC91200F48E
(1626905042.876204) can1 1CEBFF00#03DF9921FFFFFC08
(1626905042.876787) can1 0CF00300#DD0017FFFFFF91FF
(1626905042.877392) can1 14FFA000#FCFFFFFFFFFFFFFF
(1626905042.877952) can1 14FEF131#CFFFFFF300FFFF30
(1626905042.878536) can1 18FEF200#4C0000009503FFFF
(1626905042.879344) can1 0C00000B#FCFFFAFAFFFFFFFF
(1626905042.883776) can1 0C0BA027#FDFFFFFFFFFFFF75
(1626905042.884728) can1 18FEF117#F7FFFFFFFFFFFFFF
(1626905042.885316) can1 18FF2017#0000000000000000
(1626905042.885871) can1 0CF00400#607D8DCC1200F48E
(1626905042.886460) can1 18FEDF00#8C0013FF7DDE02FF
(1626905042.887049) can1 0C0A002A#C1FFFFFFFFFFFFFF
(1626905042.887617) can1 18FE5600#AB41FFFF1F1F00FF
(1626905042.888669) can1 0CF00421#FFFFFFFFFFFFFFFF
(1626905042.895609) can1 0CF00400#507D8DD11200F48E
(1626905042.896176) can1 1CEBFF0F#03603B5D0419FFFF
(1626905042.896757) can1 18FEC100#B997CC07B997CC07
(1626905042.897457) can1 18F0233D#FFFFFFFFFF28FFFF
(1626905042.898041) can1 14FDA421#FFFFFFFFFFFFFFFF
(1626905042.898621) can1 18FD413D#FFFFFFFFFCFCFCFC
(1626905042.899653) can1 10FF2121#32000FC0C0FFFF00
(1626905042.900585) can1 0C00100B#FCFFFA00FFFFFFFF
(1626905042.902309) can1 0CF00A01#00003814FFFFFFFF
(1626905042.902903) can1 10F01A01#0000FFFFFFFFFFFF
(1626905042.905631) can1 0CF00400#307D8DD71200F48D
(1626905042.906206) can1 0C000F0B#FCFFFA00FFFFFFFF
(1626905042.906814) can1 18FEF000#FFFFFFFFFFFFFFFF
(1626905042.907381) can1 18FF2FA0#DFFFFFFFFAFFFFFF
(1626905042.907963) can1 14FEF031#FFFFFFFFFFFC00FF
(1626905042.908532) can1 18FEF700#FFFFFFFF15011501
(1626905042.909446) can1 14FF2321#041CE1FFFFFFFFFF
(1626905042.910010) can1 18F00E3D#8890FFFFFFFFFFFF
(1626905042.910595) can1 18F00F3D#8890FFFFFFFFFFFF
(1626905042.911203) can1 0C00290B#FCFFFA00FFFFFFFF
(1626905042.915711) can1 0CF00400#307D8DD71200F48D
(1626905042.916280) can1 18FF1919#01030A00FFFFFFFF
(1626905042.916859) can1 0CF02FA0#01F8FAFFFFFFFFFF
(1626905042.917435) can1 18FEBF0B#00007D7D7D7D7D7D
(1626905042.917992) can1 18FEE000#1CDD4F001CDD4F00
(1626905042.918604) can1 18FEFF00#FCFFFFFFFFFFFFFF
(1626905042.919531) can1 14FF0121#FFFFFFFFFFFFFCFF
(1626905042.921286) can1 18FF1B19#FFFCFFFFFFFFFFFF
(1626905042.925840) can1 0CF00400#507D8DD11200F48E
(1626905042.926428) can1 1CEBFF00#04804D32FFFFFFFF
(1626905042.927018) can1 0CF00300#DD0016FFFFFF91FF
(1626905042.927606) can1 18FE4F3E#0400FFFFFFFFFFFF
(1626905042.928177) can1 18FEF100#C700000000001F30
(1626905042.929340) can1 14FF0221#FFFFFFFFFFFFFFFF
(1626905042.932471) can1 18F0010B#0001F0FFFF0DFFFF
(1626905042.933850) can1 0C0BA027#FDFFFFFFFFFFFF86
(1626905042.935623) can1 0CF00400#607D8DC91200F48E
(1626905042.936207) can1 18FEDF00#8C0013FF7DDB02FF
(1626905042.937775) can1 18FDC40B#FF00FFFFFFFFFFFF
(1626905042.943705) can1 18FECA0B#00FF00000000FFFF
(1626905042.945590) can1 0CF00400#007D8EC31200F48E
(1626905042.947503) can1 14F00031#CFFFFFFFFFFFFFFF
(1626905042.948067) can1 18F0233D#FFFFFFFFFF29FFFF
(1626905042.949278) can1 10FF2121#32000FC0C0FFFF00
(1626905042.952381) can1 0CF00A01#00004014FFFFFFFF
(1626905042.952973) can1 10F01A01#0000FFFFFFFFFFFF
(1626905042.953569) can1 18FECA01#03FF00000000FFFF
(1626905042.954204) can1 10FCFD01#FFFFFFFF0624FFFF
(1626905042.954777) can1 18FD9401#7864FFFFD20A3D02
(1626905042.955375) can1 18FDA101#2D03FFFFFFFF00FF
(1626905042.955953) can1 10FDA301#FFFFFFFFFFFFFFFF
(1626905042.956513) can1 0CF00400#007D8EC11200F48E
(1626905042.957087) can1 18FDAA01#FFFFFFFFFFFFFF31
(1626905042.957659) can1 14F00131#FFFFFFFF00FFFFFF
(1626905042.958239) can1 18F0000F#007DFFFF0F7DFFFF
(1626905042.958828) can1 18FDD001#FFFFFF0031FFFFFF
(1626905042.959407) can1 18FF2FA0#DFFFFFFFFAFFFFFF
(1626905042.959987) can1 1CFE9201#FF0071FFFFFFFFFF
(1626905042.960583) can1 18FEDB01#E623E623E623FFFF
(1626905042.961167) can1 18FD6501#D002FFFFFFFFFFFF
(1626905042.961751) can1 18FD6601#FF4CFFFFFFFFFFFF
(1626905042.962307) can1 18FE6901#0E26D126FFFF6425
(1626905042.962915) can1 18FE9701#FFFFFFFFFFFFFFFF
(1626905042.963507) can1 18FE9801#6027FFFFFFFFFFFF
(1626905042.964099) can1 18FE9901#007DFFFFFFFFFFFF
(1626905042.964691) can1 18FE9A01#201DFFFFFFFFFFFF
(1626905042.965279) can1 18FEDD01#FF8807FFFFFFFFFF
(1626905042.965855) can1 18F00E3D#8890FFFFFFFFFFFF
(1626905042.966403) can1 0CF00400#707D8DC31200F48E
(1626905042.966980) can1 10FE6F2A#FFFF00C0007D00FF
(1626905042.967555) can1 14FF3131#4030030000FFFFF0
(1626905042.968127) can1 0C040B2A#FFFFCCFFFFFFFF15
(1626905042.968696) can1 14FEF121#F7FFFF0FFFFFFFFF
(1626905042.969275) can1 0CF02FA0#01F8FAFFFFFFFFFF
(1626905042.969847) can1 18F00F3D#8890FFFFFFFFFFFF
(1626905042.970440) can1 18FF3000#0000AFFFFFFFFFFF
(1626905042.971015) can1 18FECA3D#03FF00000000FFFF
(1626905042.971584) can1 18FFAA01#00001505D17F955C
(1626905042.972164) can1 18FD8C3D#01000500FFFFFFFF
(1626905042.972744) can1 18FDB23D#FFFF27280000FFFF
(1626905042.973336) can1 18FDB300#FFFFB626FFFFFFFF
(1626905042.973897) can1 18FFAB01#57170EA17D003319
(1626905042.974480) can1 18FDB400#DF28DF28FFFFFFFF
(1626905042.975055) can1 18FFAC01#0E8416191200F0FF
(1626905042.975649) can1 18FFA63D#00FF00000000FFFF
(1626905042.976197) can1 0CF00400#707D8DC51200F48E
(1626905042.976777) can1 18FFAD01#A100FFFFFFFFFFFF
(1626905042.977360) can1 1CEBFF00#05FFFF0401FFFFFF
(1626905042.977921) can1 14FEF131#CFFFFFF300FFFF30
(1626905042.978497) can1 0CF00300#DD0017FFFFFF91FF
(1626905042.979084) can1 18FFAE01#00FF00000000FFFF
(1626905042.979663) can1 0C00000B#FCFFFAFAFFFFFFFF
(1626905042.980255) can1 14FFA000#FCFFFFFFFFFFFFFF
(1626905042.980851) can1 18FEF200#480000009503FFFF
(1626905042.983807) can1 0C0BA027#FDFFFFFFFFFFFF97
(1626905042.985598) can1 0CF00400#707D8DC51200F48E
(1626905042.986170) can1 18FEC117#FC11CC07FFFFFFFF
(1626905042.986762) can1 0C0A002A#C1FFFFFFFFFFFFFF
(1626905042.987342) can1 18FD0417#C0FFFFFFFFFFFFFF
(1626905042.987922) can1 0CF00421#FFFFFFFFFFFFFFFF
(1626905042.988490) can1 18FEDF00#8C0013FF7DDB02FF
(1626905042.989070) can1 18FD9B3D#FFFFFFFFFFFFFFFF
(1626905042.989638) can1 18FEF717#FFFFFFFF1601FFFF
(1626905042.990210) can1 18FEFA17#FFE2E5FFFFFFFFFF
(1626905042.990790) can1 18FF1817#001000400000FEFF
(1626905042.991362) can1 18FF1917#00FFFFFF000000E0
(1626905042.991938) can1 18FECA17#00FF00000000FFFF
(1626905042.992530) can1 18FEFC17#FF3AFFFFFFFFFFFF
(1626905042.993099) can1 18FEF117#F7FFFFFFFFFFFFFF
(1626905042.993684) can1 18FF2017#0000000000000000
(1626905042.994281) can1 18E0FF17#FFFFFF3FFFFFFFFF
(1626905042.994850) can1 18FD0517#03033FFFFFFFFFFF
(1626905042.995780) can1 0CF00400#707D8DC31200F48E
(1626905042.997603) can1 14FDA421#FFFFFFFFFFFFFFFF
(1626905042.998171) can1 18F0233D#FFFFFFFFFF29FFFF
(1626905042.998760) can1 18FD413D#FFFFFFFFFCFCFCFC
(1626905042.999599) can1 10FF2121#32000FC0C0FFFF00
(1626905043.002302) can1 0CF00A01#00004714FFFFFFFF
(1626905043.002905) can1 10F01A01#0000FFFFFFFFFFFF
(1626905043.005661) can1 0CF00400#007D8EBF1200F48E
(1626905043.006269) can1 18FEF000#FFFFFFFFFFFFFFFF
(1626905043.006859) can1 18FF2FA0#DFFFFFFFFAFFFFFF
(1626905043.007878) can1 14FEF031#FFFFFFFFFFFC00FF
(1626905043.008420) can1 18FFA53D#000A391B7426B326
(1626905043.009444) can1 14FF2321#041CE1FFFFFFFFFF
(1626905043.010007) can1 18F00E3D#8890FFFFFFFFFFFF
(1626905043.010596) can1 18F00F3D#8890FFFFFFFFFFFF
(1626905043.015716) can1 0CF00400#007D8EBD1200F48E
(1626905043.016283) can1 18FEE000#1CDD4F001CDD4F00
(1626905043.016863) can1 0CF02FA0#01F8FAFFFFFFFFFF
(1626905043.017439) can1 18FEBF0B#00007D7D7D7D7D7D
(1626905043.019404) can1 14FF0121#FFFFFFFFFFFFFCFF
(1626905043.025887) can1 0CF00400#007D8EBD1200F48E
(1626905043.026488) can1 1CEBFF00#06FFFFFFFFFFFFFF
(1626905043.027080) can1 0CF00300#DD0017FFFFFF91FF
(1626905043.027668) can1 18FE4F3E#0400FFFFFFFFFFFF
(1626905043.028241) can1 18FEF100#C700000000001F30
(1626905043.028845) can1 18FD0700#0300003FFCFFFFFF
(1626905043.029432) can1 14FF0221#FFFFFFFFFFFFFFFF
(1626905043.032519) can1 18F0010B#0001F0FFFF0DFFFF
(1626905043.033774) can1 0C0BA027#FDFFFFFFFFFFFFA8
(1626905043.035629) can1 0CF00400#707D8DC11200F48E
(1626905043.036218) can1 18FEDF00#8C0013FF7DDC02FF
(1626905043.037839) can1 18FDC40B#FF00FFFFFFFFFFFF
(1626905043.045583) can1 0CF00400#607D8DC61200F48E
(1626905043.047491) can1 14F00031#CFFFFFFFFFFFFFFF
(1626905043.048058) can1 18F0233D#FFFFFFFFFF29FFFF
(1626905043.049462) can1 10FF2121#32000FC0C0FFFF00
(1626905043.052525) can1 0CF00A01#00003814FFFFFFFF
(1626905043.053119) can1 10F01A01#0000FFFFFFFFFFFF
(1626905043.053721) can1 10FCFD01#FFFFFFFF0624FFFF
(1626905043.054276) can1 18FD9401#7864FFFF0D0B3D02
(1626905043.054867) can1 18FDA101#2D03FFFFFFFF00FF
(1626905043.055474) can1 10FDA301#FFFFFFFFFFFFFFFF
(1626905043.056045) can1 18FDAA01#FFFFFFFFFFFFFF31
(1626905043.056596) can1 0CF00400#507D8DCC1200F48E
(1626905043.057179) can1 18FDD001#FFFFFF0031FFFFFF
(1626905043.057751) can1 14F00131#FFFFFFFF00FFFFFF
(1626905043.058330) can1 18F0000F#007DFFFF0F7DFFFF
(1626905043.058918) can1 18FF2FA0#DFFFFFFFFAFFFFFF
(1626905043.059497) can1 1CFE9201#FF0071FFFFFFFFFF
(1626905043.060087) can1 18FEDB01#162416241624FFFF
(1626905043.060672) can1 18FD3C3D#7C13FFFFFFFDFFFF
(1626905043.061243) can1 18F00E3D#8890FFFFFFFFFFFF
(1626905043.061824) can1 18F00F3D#8890FFFFFFFFFFFF
(1626905043.062407) can1 18FD8C3D#01000500FFFFFFFF
(1626905043.062995) can1 18FDB23D#FFFF27280000FFFF
(1626905043.063580) can1 18FDB300#FFFFB626FFFFFFFF
(1626905043.064164) can1 18FDB400#DF28DF28FFFFFFFF
(1626905043.065732) can1 0CF00400#507D8DCD1200F48E
(1626905043.066313) can1 14FF3131#4030030000FFFFF0
(1626905043.066890) can1 10FE6F2A#FFFF00C0007D00FF
(1626905043.067477) can1 18FF3000#0000AFFFFFFFFFFF
(1626905043.068056) can1 0CF02FA0#01F8FAFFFFFFFFFF
(1626905043.068638) can1 14FEF121#F7FFFF0FFFFFFFFF
(1626905043.075635) can1 0CF00400#507D8DCD1200F48E
(1626905043.076212) can1 0CF00300#DD0017FFFFFF91FF
(1626905043.076811) can1 14FFA000#FCFFFFFFFFFFFFFF
(1626905043.077406) can1 18FEF200#4C0000009503FFFF
(1626905043.077965) can1 14FEF131#CFFFFFF300FFFF30
(1626905043.078544) can1 18FFA33D#0000EF058010FFFF
(1626905043.079476) can1 0C00000B#FCFFFAFAFFFFFFFF
(1626905043.083781) can1 18FE5127#1DFFFFFFFFFFFFFF
(1626905043.084361) can1 0C0BA027#FDFFFFFFFFFFFFB9
(1626905043.084934) can1 18FEF117#F7FFFFFFFFFFFFFF
(1626905043.085521) can1 18FF2017#0000000000000000
(1626905043.086066) can1 0CF00400#507D8DCD1200F48E
(1626905043.086681) can1 0C0A002A#C1FFFFFFFFFFFFFF
(1626905043.087228) can1 18FEDF00#8C0013FF7DDC02FF
(1626905043.087804) can1 0CF00421#FFFFFFFFFFFFFFFF
(1626905043.088426) can1 18FFA43D#D606D6060000FDFF
(1626905043.095640) can1 0CF00400#507D8DCD1200F48E
(1626905043.097494) can1 18F0233D#FFFFFFFFFF29FFFF
(1626905043.098102) can1 14FDA421#FFFFFFFFFFFFFFFF
(1626905043.098663) can1 18FD413D#FFFFFFFFFCFCFCFC
(1626905043.099217) can1 18FFA23D#0000DF1A5A254D10
(1626905043.099788) can1 10FF2121#32000FC0C0FFFF00
(1626905043.100715) can1 0C00100B#FCFFFA00FFFFFFFF
(1626905043.102524) can1 0CF00A01#00003814FFFFFFFF
(1626905043.103112) can1 10F01A01#0000FFFFFFFFFFFF
(1626905043.105715) can1 0CF00400#407D8DD11200F48E
(1626905043.106292) can1 0C000F0B#FCFFFA00FFFFFFFF
(1626905043.106879) can1 18FEF000#FFFFFFFFFFFFFFFF
(1626905043.107465) can1 18FF2FA0#DFFFFFFFFAFFFFFF
(1626905043.108049) can1 14FEF031#FFFFFFFFFFFC00FF
(1626905043.108612) can1 18FFA03D#1D111C001A001AFF
(1626905043.109456) can1 14FF2321#041CE1FFFFFFFFFF
(1626905043.110020) can1 18F00E3D#8890FFFFFFFFFFFF
(1626905043.110605) can1 18F00F3D#8890FFFFFFFFFFFF
(1626905043.111337) can1 0C00290B#FCFFFA00FFFFFFFF
(1626905043.115701) can1 0CF00400#407D8DD31200F48D
(1626905043.116268) can1 18FEE000#1CDD4F001CDD4F00
(1626905043.116849) can1 0CF02FA0#01F8FAFFFFFFFFFF
(1626905043.117426) can1 18FEBF0B#00007D7D7D7D7D7D
(1626905043.118001) can1 18FECA2A#00FF00000000FFFF
(1626905043.118565) can1 18FFA13D#AB03FE021B000000
(1626905043.119465) can1 14FF0121#FFFFFFFFFFFFFCFF
(1626905043.125844) can1 0CF00400#407D8DD11200F48E
(1626905043.126433) can1 0CF00300#DD0016FFFFFF91FF
(1626905043.127020) can1 18FEF100#C700000000001F30
(1626905043.127610) can1 18FE4F3E#0400FFFFFFFFFFFF
(1626905043.128190) can1 18FECAA0#00FF00000000FFFF
(1626905043.129426) can1 14FF0221#FFFFFFFFFFFFFFFF
(1626905043.132591) can1 18F0010B#0001F0FFFF0DFFFF
(1626905043.133754) can1 0C0BA027#FDFFFFFFFFFFFFCA
(1626905043.135633) can1 0CF00400#507D8DCD1200F48E
(1626905043.136222) can1 18FEDF00#8C0013FF7DD902FF
(1626905043.137895) can1 18FDC40B#FF00FFFFFFFFFFFF
(1626905043.145586) can1 0CF00400#607D8DC91200F48E
(1626905043.147516) can1 14F00031#CFFFFFFFFFFFFFFF
(1626905043.148079) can1 18F0233D#FFFFFFFFFF2AFFFF
(1626905043.148664) can1 18E00021#FFFFFFFFFFFFFFFF
(1626905043.149339) can1 10FF2121#32000FC0C0FFFF00
(1626905043.152412) can1 0CF00A01#00003814FFFFFFFF
(1626905043.152999) can1 10F01A01#0000FFFFFFFFFFFF
(1626905043.153591) can1 10FCFD01#FFFFFFFF0624FFFF
(1626905043.154199) can1 18FD9401#7864FFFF2B0B3D02
(1626905043.154787) can1 18FDA101#2D03FFFFFFFF00FF
(1626905043.155380) can1 10FDA301#FFFFFFFFFFFFFFFF
(1626905043.155971) can1 18FDAA01#FFFFFFFFFFFFFF31
(1626905043.156519) can1 0CF00400#607D8DC61200F48E
(1626905043.157103) can1 18FDD001#FFFFFF0031FFFFFF
(1626905043.157676) can1 14F00131#FFFFFFFF00FFFFFF
(1626905043.158255) can1 18F0000F#007DFFFF0F7DFFFF
(1626905043.158843) can1 18FF2FA0#DFFFFFFFFAFFFFFF
(1626905043.159419) can1 1CFE9201#FF0071FFFFFFFFFF
(1626905043.159983) can1 18FEDB01#162416241624FFFF
(1626905043.160587) can1 18F00E3D#8890FFFFFFFFFFFF
(1626905043.161167) can1 18F00F3D#8890FFFFFFFFFFFF
(1626905043.161747) can1 18FD8C3D#01000500FFFFFFFF
(1626905043.162323) can1 18FDB23D#FFFF27280000FFFF
(1626905043.162919) can1 18FDB300#FFFFB626FFFFFFFF
(1626905043.163500) can1 18FDB400#DF28DF28FFFFFFFF
(1626905043.165694) can1 0CF00400#707D8DC51200F48E
(1626905043.166273) can1 14FF3131#4030030000FFFFF0
(1626905043.166850) can1 10FE6F2A#FFFF00C0007D00FF
(1626905043.167421) can1 10FECA47#00FF00000000FFFF
(1626905043.167989) can1 0C040B2A#FFFFCCFFFFFFFF26
(1626905043.168556) can1 14FEF121#F7FFFF0FFFFFFFFF
(1626905043.169136) can1 0CF02FA0#01F8FAFFFFFFFFFF
(1626905043.169729) can1 18FF3000#0000AFFFFFFFFFFF
(1626905043.175621) can1 0CF00400#607D8DC51200F48E
(1626905043.176205) can1 0CF00300#DD0017FFFFFF91FF
(1626905043.176810) can1 14FFA000#FCFFFFFFFFFFFFFF
(1626905043.177401) can1 18FEF200#480000009503FFFF
(1626905043.177977) can1 10FECA31#00FF00000000FFFF
(1626905043.178749) can1 14FEF131#CFFFFFF300FFFF30
(1626905043.179551) can1 0C00000B#FCFFFAFAFFFFFFFF
(1626905043.183772) can1 0C0BA027#FDFFFFFFFFFFFFEB
(1626905043.185589) can1 0CF00400#607D8DC51200F48E
(1626905043.186181) can1 18FEDF00#8C0013FF7DD902FF
(1626905043.186772) can1 0C0A002A#C1FFFFFFFFFFFFFF
(1626905043.187346) can1 18FEF117#F7FFFFFFFFFFFFFF
(1626905043.187925) can1 0CF00421#FFFFFFFFFFFFFFFF
(1626905043.188512) can1 18FF2017#0000000000000000
(1626905043.189089) can1 10FECA21#00FF00000000FFFF
(1626905043.195601) can1 0CF00400#607D8DC51200F48E
(1626905043.197451) can1 18F0233D#FFFFFFFFFF2AFFFF
(1626905043.198032) can1 14FDA421#FFFFFFFFFFFFFFFF
(1626905043.198611) can1 18FD413D#FFFFFFFFFCFCFCFC
(1626905043.199192) can1 1CFEC347#FFFFFFFFFFFFFFFF
(1626905043.199891) can1 10FF2121#32000FC0C0FFFF00
(1626905043.202297) can1 0CF00A01#00004014FFFFFFFF
(1626905043.202894) can1 10F01A01#0000FFFFFFFFFFFF
(1626905043.205622) can1 0CF00400#707D8DC31200F48E
(1626905043.206225) can1 18FEF000#FFFFFFFFFFFFFFFF
(1626905043.206813) can1 18FF2FA0#DFFFFFFFFAFFFFFF
(1626905043.207737) can1 14FEF031#FFFFFFFFFFFC00FF
(1626905043.209289) can1 14FF2321#041CE1FFFFFFFFFF
(1626905043.209854) can1 18F00E3D#8890FFFFFFFFFFFF
(1626905043.210433) can1 18F00F3D#8890FFFFFFFFFFFF
(1626905043.215675) can1 0CF00400#707D8DC11200F48E
(1626905043.216243) can1 18FEE000#1CDD4F001CDD4F00
(1626905043.216821) can1 0CF02FA0#01F8FAFFFFFFFFFF
(1626905043.217398) can1 18FEBF0B#00007D7D7D7D7D7D
(1626905043.217978) can1 18FF2421#CDF0FCFFFFFFFFFF
(1626905043.219374) can1 14FF0121#FFFFFFFFFFFFFCFF
(1626905043.225855) can1 0CF00400#007D8EBF1200F48E
(1626905043.226443) can1 0CF00300#DD0017FFFFFF91FF
(1626905043.227031) can1 18FEF100#C700000000001F30
(1626905043.227620) can1 18FE4F3E#0400FFFFFFFFFFFF
(1626905043.228216) can1 10FECA25#00FF00000000FFFF
(1626905043.229382) can1 14FF0221#FFFFFFFFFFFFFFFF
(1626905043.232659) can1 18F0010B#0001F0FFFF0DFFFF
(1626905043.233751) can1 0C0BA027#FDFFFFFFFFFFFFFC
(1626905043.235628) can1 0CF00400#707D8DC11200F48E
(1626905043.236208) can1 18FEDF00#8C0013FF7DDC02FF
(1626905043.236800) can1 18FEEF00#9AFFFF67FFFFFFFA
(1626905043.237768) can1 18FEF521#FFFFFFFFFFFFFFFF
(1626905043.238348) can1 18FDC40B#FF00FFFFFFFFFFFF
(1626905043.245570) can1 0CF00400#707D8DC31200F48E
(1626905043.247484) can1 14F00031#CFFFFFFFFFFFFFFF
(1626905043.248051) can1 18F0233D#FFFFFFFFFF2AFFFF
(1626905043.250202) can1 10FF2121#32000FC0C0FFFF00
(1626905043.252372) can1 0CF00A01#00004014FFFFFFFF
(1626905043.252956) can1 10F01A01#0000FFFFFFFFFFFF
(1626905043.253549) can1 10FCFD01#FFFFFFFF0624FFFF
(1626905043.254165) can1 18FD9401#7864FFFF440B3F02
(1626905043.254752) can1 18FDA101#2D03FFFFFFFF00FF
(1626905043.255344) can1 10FDA301#FFFFFFFFFFFFFFFF
(1626905043.255956) can1 18FDAA01#FFFFFFFFFFFFFF31
(1626905043.256504) can1 0CF00400#607D8DC61200F48E
(1626905043.257088) can1 18FDD001#FFFFFF0031FFFFFF
(1626905043.257664) can1 14F00131#FFFFFFFF00FFFFFF
(1626905043.258243) can1 18F0000F#007DFFFF0F7DFFFF
(1626905043.258833) can1 18FF2FA0#DFFFFFFFFAFFFFFF
(1626905043.259407) can1 1CFE9201#FF0071FFFFFFFFFF
(1626905043.259969) can1 18FEDB01#162416241624FFFF
(1626905043.260541) can1 18F00E3D#8890FFFFFFFFFFFF
(1626905043.261120) can1 18F00F3D#8890FFFFFFFFFFFF
(1626905043.261745) can1 18FD8C3D#01000500FFFFFFFF
(1626905043.262321) can1 18FDB23D#FFFF27280000FFFF
(1626905043.262919) can1 18FDB300#FFFFB626FFFFFFFF
(1626905043.263498) can1 18FDB400#DF28DF28FFFFFFFF
(1626905043.265701) can1 0CF00400#507D8DCC1200F48E
(1626905043.266280) can1 14FF3131#4030030000FFFFF0
(1626905043.266856) can1 10FE6F2A#FFFF00C0007D00FF
(1626905043.267420) can1 14FEF121#F7FFFF0FFFFFFFFF
(1626905043.268001) can1 0CF02FA0#01F8FAFFFFFFFFFF
(1626905043.268592) can1 18FF3000#0000AFFFFFFFFFFF
(1626905043.275639) can1 0CF00400#507D8DCC1200F48E
(1626905043.276226) can1 0CF00300#DD0017FFFFFF91FF
(1626905043.276830) can1 14FFA000#FCFFFFFFFFFFFFFF
(1626905043.277425) can1 18FEF200#480000009503FFFF
(1626905043.277985) can1 14FEF131#CFFFFFF300FFFF30
(1626905043.279607) can1 0C00000B#FCFFFAFAFFFFFFFF
(1626905043.283745) can1 0C0BA027#FDFFFFFFFFFFFF0D
(1626905043.284877) can1 18FEF117#F7FFFFFFFFFFFFFF
(1626905043.285463) can1 18FF2017#0000000000000000
(1626905043.286002) can1 0CF00400#607D8DC91200F48E
(1626905043.286597) can1 0C0A002A#C1FFFFFFFFFFFFFF
(1626905043.287154) can1 18FEDF00#8C0013FF7DDC02FF
(1626905043.287734) can1 0CF00421#FFFFFFFFFFFFFFFF
(1626905043.295600) can1 0CF00400#607D8DC61200F48E
(1626905043.297459) can1 18F0233D#FFFFFFFFFF2AFFFF
(1626905043.298042) can1 14FDA421#FFFFFFFFFFFFFFFF
(1626905043.298623) can1 18FD413D#FFFFFFFFFCFCFCFC
(1626905043.299610) can1 10FF2121#32000FC0C0FFFF00
(1626905043.300846) can1 0C00100B#FCFFFA00FFFFFFFF
(1626905043.302294) can1 0CF00A01#00003814FFFFFFFF
(1626905043.302890) can1 10F01A01#0000FFFFFFFFFFFF
(1626905043.305626) can1 0CF00400#607D8DC91200F48E
(1626905043.306201) can1 0C000F0B#FCFFFA00FFFFFFFF
(1626905043.306794) can1 18FEF000#FFFFFFFFFFFFFFFF
(1626905043.307375) can1 18FF2FA0#DFFFFFFFFAFFFFFF
(1626905043.307958) can1 14FEF031#FFFFFFFFFFFC00FF
(1626905043.309827) can1 18F00E3D#8890FFFFFFFFFFFF
(1626905043.310399) can1 14FF2321#041CE1FFFFFFFFFF
(1626905043.310972) can1 18F00F3D#8890FFFFFFFFFFFF
(1626905043.311540) can1 0C00290B#FCFFFA00FFFFFFFF
(1626905043.315644) can1 0CF00400#607D8DC91200F48E
(1626905043.316220) can1 14FD3E00#B026FFA626FFFFFF
(1626905043.316799) can1 0CF02FA0#01F8FAFFFFFFFFFF
(1626905043.317375) can1 18FEBF0B#00007D7D7D7D7D7D
(1626905043.317932) can1 18FEE000#1CDD4F001CDD4F00
(1626905043.318507) can1 18FEF621#FFFFFFFFFFFFFFFF
(1626905043.319475) can1 14FF0121#FFFFFFFFFFFFFCFF
(1626905043.325828) can1 0CF00400#607D8DC91200F48E
(1626905043.326416) can1 0CF00300#DD0017FFFFFF91FF
(1626905043.327001) can1 18FEF100#C700000000001F30
(1626905043.327592) can1 18FE4F3E#0400FFFFFFFFFFFF
(1626905043.328164) can1 18FEF721#FFFFFFFF1401FFFF
(1626905043.330224) can1 14FF0221#FFFFFFFFFFFFFFFF
(1626905043.332727) can1 18F0010B#0001F0FFFF0DFFFF
(1626905043.333746) can1 18FE5127#1DFFFFFFFFFFFFFF
(1626905043.334327) can1 0C0BA027#FDFFFFFFFFFFFF1E
(1626905043.335650) can1 0CF00400#607D8DC51200F48E
(1626905043.336239) can1 18FEDF00#8C0013FF7DDB02FF
(1626905043.337698) can1 18E00031#FFFFFFFFFFF3FFFF
(1626905043.338278) can1 18FDC40B#FF00FFFFFFFFFFFF
(1626905043.345569) can1 0CF00400#607D8DC51200F48E
(1626905043.347519) can1 14F00031#CFFFFFFFFFFFFFFF
(1626905043.348086) can1 18F0233D#FFFFFFFFFF2AFFFF
(1626905043.350173) can1 10FF2121#32000FC0C0FFFF00
(1626905043.352310) can1 0CF00A01#00003114FFFFFFFF
(1626905043.352897) can1 10F01A01#0000FFFFFFFFFFFF
(1626905043.353488) can1 10FCFD01#FFFFFFFF0624FFFF
(1626905043.354054) can1 18FD9401#7864FFFF610B3E02
(1626905043.354661) can1 18FDA101#2D03FFFFFFFF00FF
(1626905043.355248) can1 10FDA301#FFFFFFFFFFFFFFFF
(1626905043.355834) can1 18FDAA01#FFFFFFFFFFFFFF31
(1626905043.356385) can1 0CF00400#607D8DC51200F48E
(1626905043.356969) can1 18FDD001#FFFFFF0031FFFFFF
(1626905043.357548) can1 18F0000F#007DFFFF0F7DFFFF
(1626905043.358121) can1 14F00131#FFFFFFFF00FFFFFF
(1626905043.358681) can1 18FEF600#FF004731FFDC28FF
(1626905043.359266) can1 18FF2FA0#DFFFFFFFFAFFFFFF
(1626905043.359848) can1 1CFE9201#FF0071FFFFFFFFFF
(1626905043.360411) can1 18FEDB01#162416241624FFFF
(1626905043.360982) can1 18F00E3D#8890FFFFFFFFFFFF
(1626905043.361564) can1 18F00F3D#8890FFFFFFFFFFFF
(1626905043.362167) can1 18FD8C3D#01000500FFFFFFFF
(1626905043.362753) can1 18FDB23D#FFFF27280000FFFF
(1626905043.363338) can1 18FDB300#FFFFB626FFFFFFFF
(1626905043.363922) can1 18FDB400#DF28DF28FFFFFFFF
(1626905043.365702) can1 0CF00400#707D8DC31200F48E
(1626905043.366283) can1 14FF3131#4030030000FFFFF0
(1626905043.366861) can1 10FE6F2A#FFFF00C0007D00FF
(1626905043.367424) can1 14FEF121#F7FFFF0FFFFFFFFF
(1626905043.367991) can1 0C040B2A#FFFFCCFFFFFFFF37
(1626905043.368582) can1 18FF3000#0000AFFFFFFFFFFF
(1626905043.369163) can1 0CF02FA0#01F8FAFFFFFFFFFF
(1626905043.375613) can1 0CF00400#707D8DC31200F48E
(1626905043.376199) can1 0CF00300#DD0017FFFFFF91FF
(1626905043.376803) can1 14FFA000#FCFFFFFFFFFFFFFF
(1626905043.377400) can1 18FEF200#480000009503FFFF
(1626905043.377968) can1 14FEF131#CFFFFFF300FFFF30
(1626905043.379683) can1 0C00000B#FCFFFAFAFFFFFFFF
(1626905043.383762) can1 0C0BA027#FDFFFFFFFFFFFF2F
(1626905043.384738) can1 18FEF117#F7FFFFFFFFFFFFFF
(1626905043.385320) can1 18FF2017#0000000000000000
(1626905043.385871) can1 0CF00400#707D8DC11200F48E
(1626905043.386455) can1 18FEDF00#8C0013FF7DDB02FF
(1626905043.387048) can1 0C0A002A#C1FFFFFFFFFFFFFF
(1626905043.387981) can1 0CF00421#FFFFFFFFFFFFFFFF
(1626905043.395603) can1 0CF00400#707D8DC11200F48E
(1626905043.396392) can1 18A9FE31#FFFFFFFFFFFFFFFF
(1626905043.397448) can1 14FDA421#FFFFFFFFFFFFFFFF
(1626905043.398015) can1 18F0233D#FFFFFFFFFF2AFFFF
(1626905043.398625) can1 18FD413D#FFFFFFFFFCFCFCFC
(1626905043.399568) can1 10FF2121#32000FC0C0FFFF00
(1626905043.402297) can1 0CF00A01#00003814FFFFFFFF
(1626905043.402894) can1 10F01A01#0000FFFFFFFFFFFF
(1626905043.405640) can1 0CF00400#707D8DC11200F48E
(1626905043.406244) can1 18FEF000#FFFFFFFFFFFFFFFF
(1626905043.406832) can1 18FF2FA0#DFFFFFFFFAFFFFFF
(1626905043.407789) can1 14FEF031#FFFFFFFFFFFC00FF
(1626905043.409837) can1 18F00E3D#8890FFFFFFFFFFFF
(1626905043.410403) can1 14FF2321#041CE1FFFFFFFFFF
(1626905043.410983) can1 18F00F3D#8890FFFFFFFFFFFF
(1626905043.415682) can1 0CF00400#707D8DC11200F48E
(1626905043.416248) can1 18FF1919#01030A00FFFFFFFF
(1626905043.416825) can1 0CF02FA0#01F8FAFFFFFFFFFF
(1626905043.417401) can1 18FEBF0B#00007D7D7D7D7D7D
(1626905043.417957) can1 18FEE000#1CDD4F001CDD4F00
(1626905043.419376) can1 14FF0121#FFFFFFFFFFFFFCFF
(1626905043.421238) can1 18FF1B19#FFFCFFFFFFFFFFFF
(1626905043.425834) can1 0CF00400#707D8DC11200F48E
(1626905043.426413) can1 18E00019#00FFFFFFFFFFFFFF
(1626905043.426991) can1 0CF00300#DD0017FFFFFF91FF
(1626905043.427578) can1 18FE4F3E#0400FFFFFFFFFFFF
(1626905043.428149) can1 18FEF100#C700000000001F30
(1626905043.430182) can1 14FF0221#FFFFFFFFFFFFFFFF
(1626905043.431516) can1 18FEF719#FFFFFFFFFFFF1601
(1626905043.432783) can1 18F0010B#0001F0FFFF0DFFFF
(1626905043.433735) can1 0C0BA027#FDFFFFFFFFFFFF20
(1626905043.435637) can1 0CF00400#707D8DC31200F48E
(1626905043.436218) can1 18FEDF00#8C0013FF7DDA02FF
(1626905043.438098) can1 18FDC40B#FF00FFFFFFFFFFFF
(1626905043.445573) can1 0CF00400#607D8DC51200F48E
(1626905043.447509) can1 14F00031#CFFFFFFFFFFFFFFF
(1626905043.448075) can1 18F0233D#FFFFFFFFFF2BFFFF
(1626905043.450179) can1 10FF2121#32000FC0C0FFFF00
(1626905043.452354) can1 0CF00A01#00003814FFFFFFFF
(1626905043.452911) can1 10F01A01#0000FFFFFFFFFFFF
(1626905043.453493) can1 10FCFD01#FFFFFFFF0624FFFF
(1626905043.454088) can1 18FD9401#7864FFFF9A0B3D02
(1626905043.454674) can1 18FDA101#2D03FFFFFFFF00FF
(1626905043.455270) can1 10FDA301#FFFFFFFFFFFFFFFF
(1626905043.455857) can1 18FDAA01#FFFFFFFFFFFFFF31
(1626905043.456405) can1 0CF00400#507D8DC91200F48E
(1626905043.456988) can1 18FDD001#FFFFFF0031FFFFFF
(1626905043.457568) can1 18F0000F#007DFFFF0F7DFFFF
(1626905043.458140) can1 14F00131#FFFFFFFF00FFFFFF
(1626905043.458725) can1 18FF2FA0#DFFFFFFFFAFFFFFF
(1626905043.459324) can1 1CFE9201#FF0071FFFFFFFFFF
(1626905043.459878) can1 18FEDB01#162416241624FFFF
(1626905043.460462) can1 18FD6501#D002FFFFFFFFFFFF
(1626905043.461032) can1 18F00E3D#8890FFFFFFFFFFFF
(1626905043.461613) can1 18F00F3D#8890FFFFFFFFFFFF
(1626905043.462197) can1 18FD8C3D#01000500FFFFFFFF
(1626905043.462775) can1 18FDB23D#FFFF27280000FFFF
(1626905043.463369) can1 18FDB300#FFFFB626FFFFFFFF
(1626905043.463954) can1 18FDB400#DF28DF28FFFFFFFF
(1626905043.465704) can1 0CF00400#507D8DCD1200F48E
(1626905043.466285) can1 14FF3131#4030030000FFFFF0
(1626905043.466857) can1 10FE6F2A#FFFF00C0007D00FF
(1626905043.467450) can1 18FF3000#0000AFFFFFFFFFFF
(1626905043.468029) can1 0CF02FA0#01F8FAFFFFFFFFFF
(1626905043.468596) can1 14FEF121#F7FFFF0FFFFFFFFF
(1626905043.475613) can1 0CF00400#507D8DCD1200F48E
(1626905043.476200) can1 0CF00300#DD0016FFFFFF91FF
(1626905043.476804) can1 14FFA000#FCFFFFFFFFFFFFFF
(1626905043.477396) can1 18FEF200#4C0000009503FFFF
(1626905043.477956) can1 14FEF131#CFFFFFF300FFFF30
(1626905043.479737) can1 0C00000B#FCFFFAFAFFFFFFFF
(1626905043.483740) can1 0C0BA027#FDFFFFFFFFFFFF31
(1626905043.484540) can1 18FEF117#F7FFFFFFFFFFFFFF
(1626905043.485171) can1 18FF2017#0000000000000000
(1626905043.485684) can1 0CF00400#407D8DD11200F48D
(1626905043.486272) can1 18FEDF00#8C0013FF7DDA02FF
(1626905043.486866) can1 0C0A002A#C1FFFFFFFFFFFFFF
(1626905043.487862) can1 0CF00421#FFFFFFFFFFFFFFFF
(1626905043.495602) can1 0CF00400#407D8DD11200F48D
(1626905043.497449) can1 18F0233D#FFFFFFFFFF2BFFFF
(1626905043.498031) can1 14FDA421#FFFFFFFFFFFFFFFF
(1626905043.498611) can1 18FD413D#FFFFFFFFFCFCFCFC
(1626905043.500182) can1 10FF2121#32000FC0C0FFFF00
(1626905043.500978) can1 0C00100B#FCFFFA00FFFFFFFF
(1626905043.502298) can1 0CF00A01#00003814FFFFFFFF
(1626905043.502894) can1 10F01A01#0000FFFFFFFFFFFF
(1626905043.505622) can1 0CF00400#407D8DD11200F48E
(1626905043.506226) can1 18FEF000#FFFFFFFFFFFFFFFF
(1626905043.506806) can1 0C000F0B#FCFFFA00FFFFFFFF
(1626905043.507386) can1 18FF2FA0#DFFFFFFFFAFFFFFF
(1626905043.507970) can1 14FEF031#FFFFFFFFFFFC00FF
(1626905043.509826) can1 18F00E3D#8890FFFFFFFFFFFF
(1626905043.510398) can1 14FF2321#041CE1FFFFFFFFFF
(1626905043.510974) can1 18F00F3D#8890FFFFFFFFFFFF
(1626905043.511590) can1 0C00290B#FCFFFA00FFFFFFFF
(1626905043.515645) can1 0CF00400#507D8DCD1200F48E
(1626905043.516213) can1 18FEE000#1CDD4F001CDD4F00
(1626905043.516792) can1 0CF02FA0#01F8FAFFFFFFFFFF
(1626905043.517367) can1 18FEBF0B#00007D7D7D7D7D7D
(1626905043.520159) can1 14FF0121#FFFFFFFFFFFFFCFF
(1626905043.525830) can1 0CF00400#507D8DCC1200F48E
(1626905043.526416) can1 0CF00300#DD0017FFFFFF91FF
(1626905043.527006) can1 18FEF100#C700000000001F30
(1626905043.527592) can1 18FE4F3E#0400FFFFFFFFFFFF
(1626905043.530183) can1 14FF0221#FFFFFFFFFFFFFFFF
(1626905043.532853) can1 18F0010B#0001F0FFFF0DFFFF
(1626905043.533708) can1 0C0BA027#FDFFFFFFFFFFFF42
(1626905043.535620) can1 0CF00400#607D8DC61200F48E
(1626905043.536200) can1 18FEDF00#8C0013FF7DDB02FF
(1626905043.538160) can1 18FDC40B#FF00FFFFFFFFFFFF
(1626905043.545569) can1 0CF00400#607D8DC61200F48E
(1626905043.547487) can1 14F00031#CFFFFFFFFFFFFFFF
(1626905043.548052) can1 18F0233D#FFFFFFFFFF2BFFFF
(1626905043.550190) can1 10FF2121#32000FC0C0FFFF00
(1626905043.552306) can1 0CF00A01#00003814FFFFFFFF
(1626905043.552893) can1 10F01A01#0000FFFFFFFFFFFF
(1626905043.553485) can1 10FCFD01#FFFFFFFF0624FFFF
(1626905043.554085) can1 18FD9401#7864FFFFB70B3E02
(1626905043.554673) can1 18FDA101#2D03FFFFFFFF00FF
(1626905043.555269) can1 10FDA301#FFFFFFFFFFFFFFFF
(1626905043.555857) can1 18FDAA01#FFFFFFFFFFFFFF31
(1626905043.556404) can1 0CF00400#607D8DC61200F48E
(1626905043.556988) can1 18FDD001#FFFFFF0031FFFFFF
(1626905043.557569) can1 18F0000F#007DFFFF0F7DFFFF
(1626905043.558141) can1 14F00131#FFFFFFFF00FFFFFF
(1626905043.558729) can1 18FF2FA0#DFFFFFFFFAFFFFFF
(1626905043.559306) can1 1CFE9201#FF0071FFFFFFFFFF
(1626905043.559873) can1 18FEDB01#162416241624FFFF
(1626905043.560445) can1 18F00E3D#8890FFFFFFFFFFFF
(1626905043.561025) can1 18F00F3D#8890FFFFFFFFFFFF
(1626905043.561605) can1 18FD8C3D#01000500FFFFFFFF
(1626905043.562181) can1 18FDB23D#FFFF27280000FFFF
(1626905043.562777) can1 18FDB300#FFFFB626FFFFFFFF
(1626905043.563361) can1 18FDB400#DF28DF28FFFFFFFF
(1626905043.565701) can1 0CF00400#607D8DC61200F48E
(1626905043.566281) can1 14FF3131#4030030000FFFFF0
(1626905043.566857) can1 10FE6F2A#FFFF00C0007D00FF
(1626905043.567421) can1 14FEF121#F7FFFF0FFFFFFFFF
(1626905043.567988) can1 0C040B2A#FFFFCCFFFFFFFF48
(1626905043.568581) can1 18FF3000#0000AFFFFFFFFFFF
(1626905043.569161) can1 0CF02FA0#01F8FAFFFFFFFFFF
(1626905043.575616) can1 0CF00400#707D8DC31200F48E
(1626905043.576207) can1 0CF00300#DD0017FFFFFF91FF
(1626905043.576806) can1 14FFA000#FCFFFFFFFFFFFFFF
(1626905043.577402) can1 18FEF200#480000009503FFFF
(1626905043.577962) can1 14FEF131#CFFFFFF300FFFF30
(1626905043.579803) can1 0C00000B#FCFFFAFAFFFFFFFF
(1626905043.583741) can1 18FE5127#1DFFFFFFFFFFFFFF
(1626905043.584319) can1 0C0BA027#FDFFFFFFFFFFFF53
(1626905043.584990) can1 18FEF117#F7FFFFFFFFFFFFFF
(1626905043.585579) can1 18FF2017#0000000000000000
(1626905043.586131) can1 0CF00400#707D8DC11200F48E
(1626905043.586724) can1 0C0A002A#C1FFFFFFFFFFFFFF
(1626905043.587286) can1 18FEDF00#8C0013FF7DDB02FF
(1626905043.587878) can1 0CF00421#FFFFFFFFFFFFFFFF
(1626905043.595602) can1 0CF00400#707D8DC11200F48E
(1626905043.597453) can1 18F0233D#FFFFFFFFFF2BFFFF
(1626905043.598035) can1 14FDA421#FFFFFFFFFFFFFFFF
(1626905043.598617) can1 18FD413D#FFFFFFFFFCFCFCFC
(1626905043.600183) can1 10FF2121#32000FC0C0FFFF00
(1626905043.602296) can1 0CF00A01#00003814FFFFFFFF
(1626905043.602892) can1 10F01A01#0000FFFFFFFFFFFF
(1626905043.605623) can1 0CF00400#607D8DC31200F48E
(1626905043.606227) can1 18FEF000#FFFFFFFFFFFFFFFF
(1626905043.606815) can1 18FF2FA0#DFFFFFFFFAFFFFFF
(1626905043.607771) can1 14FEF031#FFFFFFFFFFFC00FF
(1626905043.609823) can1 18F00E3D#8890FFFFFFFFFFFF
(1626905043.610395) can1 14FF2321#041CE1FFFFFFFFFF
(1626905043.610971) can1 18F00F3D#8890FFFFFFFFFFFF
(1626905043.615655) can1 0CF00400#607D8DC51200F48E
(1626905043.616224) can1 18FEE000#1CDD4F001CDD4F00
(1626905043.616803) can1 0CF02FA0#01F8FAFFFFFFFFFF
(1626905043.617379) can1 18FEBF0B#00007D7D7D7D7D7D
(1626905043.620164) can1 14FF0121#FFFFFFFFFFFFFCFF
(1626905043.625811) can1 0CF00400#607D8DC51200F48E
(1626905043.626400) can1 0CF00300#DD0017FFFFFF91FF
(1626905043.626989) can1 18FEF100#C700000000001F30
(1626905043.627612) can1 18FE4F3E#0400FFFFFFFFFFFF
(1626905043.630172) can1 14FF0221#FFFFFFFFFFFFFFFF
(1626905043.632920) can1 18F0010B#0001F0FFFF0DFFFF
(1626905043.633715) can1 0C0BA027#FDFFFFFFFFFFFF64
(1626905043.635623) can1 0CF00400#707D8DC31200F48E
(1626905043.636201) can1 18FEDF00#8C0013FF7DDB02FF
(1626905043.638225) can1 18FDC40B#FF00FFFFFFFFFFFF
(1626905043.645558) can1 0CF00400#707D8DC31200F48E
(1626905043.647510) can1 14F00031#CFFFFFFFFFFFFFFF
(1626905043.648078) can1 18F0233D#FFFFFFFFFF2BFFFF
(1626905043.650169) can1 10FF2121#32000FC0C0FFFF00
(1626905043.652306) can1 0CF00A01#00004014FFFFFFFF
(1626905043.652899) can1 10F01A01#0000FFFFFFFFFFFF
(1626905043.653488) can1 10FCFD01#FFFFFFFF0624FFFF
(1626905043.654090) can1 18FD9401#7864FFFFD20B3E02
(1626905043.654680) can1 18FDA101#2D03FFFFFFFF00FF
(1626905043.655274) can1 10FDA301#FFFFFFFFFFFFFFFF
(1626905043.655862) can1 18FDAA01#FFFFFFFFFFFFFF31
(1626905043.656411) can1 0CF00400#707D8DC31200F48E
(1626905043.656995) can1 18FDD001#FFFFFF0031FFFFFF
(1626905043.657574) can1 18F0000F#007DFFFF0F7DFFFF
(1626905043.658164) can1 14F00131#FFFFFFFF00FFFFFF
(1626905043.658741) can1 18FF2FA0#DFFFFFFFFAFFFFFF
(1626905043.659312) can1 1CFE9201#FF0071FFFFFFFFFF
(1626905043.659874) can1 18FEDB01#162416241624FFFF
(1626905043.660446) can1 18F00E3D#8890FFFFFFFFFFFF
(1626905043.661026) can1 18F00F3D#8890FFFFFFFFFFFF
(1626905043.661606) can1 18FD8C3D#01000500FFFFFFFF
(1626905043.662181) can1 18FDB23D#FFFF27280000FFFF
(1626905043.662779) can1 18FDB300#FFFFB626FFFFFFFF
(1626905043.663361) can1 18FDB400#DF28DF28FFFFFFFF
(1626905043.665682) can1 0CF00400#607D8DC51200F48E
(1626905043.666261) can1 14FF3131#4030030000FFFFF0
(1626905043.666883) can1 10FE6F2A#FFFF00C0007D00FF
(1626905043.667406) can1 14FEF121#F7FFFF0FFFFFFFFF
(1626905043.667981) can1 0CF02FA0#01F8FAFFFFFFFFFF
(1626905043.668576) can1 18FF3000#0000AFFFFFFFFFFF
(1626905043.675611) can1 0CF00400#507D8DC91200F48E
(1626905043.676194) can1 0CF00300#DD0017FFFFFF91FF
(1626905043.676798) can1 14FFA000#FCFFFFFFFFFFFFFF
(1626905043.677390) can1 18FEF200#4C0000009503FFFF
(1626905043.677950) can1 14FEF131#CFFFFFF300FFFF30
(1626905043.679870) can1 0C00000B#FCFFFAFAFFFFFFFF
(1626905043.683723) can1 0C0BA027#FDFFFFFFFFFFFF75
(1626905043.684647) can1 18FEF117#F7FFFFFFFFFFFFFF
(1626905043.685234) can1 18FF2017#0000000000000000
(1626905043.685786) can1 0CF00400#407D8DCD1200F48E
(1626905043.686378) can1 18FEDF00#8C0013FF7DDB02FF
(1626905043.686971) can1 0C0A002A#C1FFFFFFFFFFFFFF
(1626905043.687974) can1 0CF00421#FFFFFFFFFFFFFFFF
(1626905043.695606) can1 0CF00400#407D8DCF1200F48D
(1626905043.697454) can1 18F0233D#FFFFFFFFFF2BFFFF
(1626905043.698038) can1 14FDA421#FFFFFFFFFFFFFFFF
(1626905043.698618) can1 18FD413D#FFFFFFFFFCFCFCFC
(1626905043.700218) can1 10FF2121#32000FC0C0FFFF00
(1626905043.701115) can1 0C00100B#FCFFFA00FFFFFFFF
(1626905043.702294) can1 0CF00A01#00003814FFFFFFFF
(1626905043.702894) can1 10F01A01#0000FFFFFFFFFFFF
(1626905043.705649) can1 0CF00400#407D8DD11200F48D
(1626905043.706251) can1 18FEF000#FFFFFFFFFFFFFFFF
(1626905043.706828) can1 0C000F0B#FCFFFA00FFFFFFFF
(1626905043.707411) can1 18FF2FA0#DFFFFFFFFAFFFFFF
(1626905043.707996) can1 14FEF031#FFFFFFFFFFFC00FF
(1626905043.709823) can1 18F00E3D#8890FFFFFFFFFFFF
(1626905043.710396) can1 14FF2321#041CE1FFFFFFFFFF
(1626905043.710973) can1 18F00F3D#8890FFFFFFFFFFFF
(1626905043.711728) can1 0C00290B#FCFFFA00FFFFFFFF
(1626905043.715728) can1 0CF00400#507D8DCC1200F48E
(1626905043.716308) can1 0CF02FA0#01F8FAFFFFFFFFFF
(1626905043.716864) can1 18FEE000#1CDD4F001CDD4F00
(1626905043.717440) can1 18FEBF0B#00007D7D7D7D7D7D
(1626905043.718028) can1 18FECA00#03FF00000000FFFF
(1626905043.718613) can1 18FF2421#CDF0FCFFFFFFFFFF
(1626905043.719532) can1 14FF0121#FFFFFFFFFFFFFCFF
(1626905043.725958) can1 0CF00400#607D8DC61200F48E
(1626905043.726553) can1 0CF00300#DD0017FFFFFF91FF
(1626905043.727141) can1 18FEF100#C700000000001F30
(1626905043.727729) can1 18FE4F3E#0400FFFFFFFFFFFF
(1626905043.728308) can1 18FDE000#FFFFFFFF1025FFFF
(1626905043.730180) can1 14FF0221#FFFFFFFFFFFFFFFF
(1626905043.732982) can1 18F0010B#0001F0FFFF0DFFFF
(1626905043.733721) can1 0C0BA027#FDFFFFFFFFFFFF86
(1626905043.735620) can1 0CF00400#707D8DC31200F48E
(1626905043.736201) can1 18FEDF00#8C0013FF7DDB02FF
(1626905043.736789) can1 18FEEF00#9AFFFF66FFFFFFFA
(1626905043.738294) can1 18FDC40B#FF00FFFFFFFFFFFF
(1626905043.745566) can1 0CF00400#707D8DC11200F48E
(1626905043.746165) can1 18FCDC00#E1FEFEFFFFFFFFFF
(1626905043.747521) can1 14F00031#CFFFFFFFFFFFFFFF
(1626905043.748083) can1 18F0233D#FFFFFFFFFF2BFFFF
(1626905043.750170) can1 10FF2121#32000FC0C0FFFF00
(1626905043.752306) can1 0CF00A01#00003814FFFFFFFF
(1626905043.752894) can1 10F01A01#0000FFFFFFFFFFFF
(1626905043.753486) can1 10FCFD01#FFFFFFFF0624FFFF
(1626905043.754082) can1 18FD9401#7864FFFFEE0B3C02
(1626905043.754669) can1 18FDA101#2D03FFFFFFFF00FF
(1626905043.755266) can1 10FDA301#FFFFFFFFFFFFFFFF
(1626905043.755858) can1 18FDAA01#FFFFFFFFFFFFFF31
(1626905043.756410) can1 0CF00400#607D8DC31200F48E
(1626905043.756994) can1 18FDD001#FFFFFF0031FFFFFF
(1626905043.757573) can1 18F0000F#007DFFFF0F7DFFFF
(1626905043.758146) can1 14F00131#FFFFFFFF00FFFFFF
(1626905043.758734) can1 18FF2FA0#DFFFFFFFFAFFFFFF
(1626905043.759310) can1 1CFE9201#FF0071FFFFFFFFFF
(1626905043.759874) can1 18FEDB01#162416241624FFFF
(1626905043.760446) can1 18F00E3D#8890FFFFFFFFFFFF
(1626905043.761026) can1 18F00F3D#8890FFFFFFFFFFFF
(1626905043.761606) can1 18FD8C3D#01000500FFFFFFFF
(1626905043.762182) can1 18FDB23D#FFFF27280000FFFF
(1626905043.762779) can1 18FDB300#FFFFB626FFFFFFFF
(1626905043.763362) can1 18FDB400#DF28DF28FFFFFFFF
(1626905043.765682) can1 0CF00400#707D8DC11200F48E
(1626905043.766299) can1 18FF3000#0000AFFFFFFFFFFF
(1626905043.766875) can1 10FE6F2A#FFFF00C0007D00FF
(1626905043.767451) can1 14FF3131#4030030000FFFFF0
(1626905043.768019) can1 0C040B2A#FFFFCCFFFFFFFF59
(1626905043.768586) can1 14FEF121#F7FFFF0FFFFFFFFF
(1626905043.769221) can1 0CF02FA0#01F8FAFFFFFFFFFF
(1626905043.775624) can1 0CF00400#707D8DBF1200F48E
(1626905043.776211) can1 0CF00300#DD0017FFFFFF91FF
(1626905043.776833) can1 14FFA000#FCFFFFFFFFFFFFFF
(1626905043.777413) can1 18FEF200#480000009503FFFF
(1626905043.777972) can1 14FEF131#CFFFFFF300FFFF30
(1626905043.778542) can1 18FEF500#C8FFFF6B2547FFFF
(1626905043.779929) can1 0C00000B#FCFFFAFAFFFFFFFF
(1626905043.783732) can1 0C0BA027#FDFFFFFFFFFFFF97
(1626905043.784964) can1 18FEF117#F7FFFFFFFFFFFFFF
(1626905043.785552) can1 18FF2017#0000000000000000
(1626905043.786111) can1 0CF00400#007D8EBB1200F48E
(1626905043.786772) can1 0C0A002A#C1FFFFFFFFFFFFFF
(1626905043.787274) can1 18FEDF00#8C0013FF7DDB02FF
(1626905043.787851) can1 0CF00421#FFFFFFFFFFFFFFFF
(1626905043.795596) can1 0CF00400#107D8EB71200F48E
(1626905043.796183) can1 18FEEE00#4E436026FFFF47FF
(1626905043.797445) can1 18F0233D#FFFFFFFFFF2BFFFF
(1626905043.798029) can1 14FDA421#FFFFFFFFFFFFFFFF
(1626905043.798611) can1 18FD413D#FFFFFFFFFCFCFCFC
(1626905043.800174) can1 10FF2121#32000FC0C0FFFF00
(1626905043.802297) can1 0CF00A01#00003814FFFFFFFF
(1626905043.802896) can1 10F01A01#0000FFFFFFFFFFFF
(1626905043.805626) can1 0CF00400#207D8EB31200F48E
(1626905043.806237) can1 18FEF000#FFFFFFFFFFFFFFFF
(1626905043.806825) can1 18FF2FA0#DFFFFFFFFAFFFFFF
(1626905043.807393) can1 18FEA400#FFFFFFFF207E2022
(1626905043.807977) can1 14FEF031#FFFFFFFFFFFC00FF
(1626905043.809821) can1 18F00E3D#8890FFFFFFFFFFFF
(1626905043.810393) can1 14FF2321#041CE1FFFFFFFFFF
(1626905043.810969) can1 18F00F3D#8890FFFFFFFFFFFF
(1626905043.815664) can1 0CF00400#107D8EB41200F48E
(1626905043.816253) can1 14FD3E00#B026FFB026FFFFFF
(1626905043.816833) can1 0CF02FA0#01F8FAFFFFFFFFFF
(1626905043.817419) can1 18FEBF0B#00007D7D7D7D7D7D
(1626905043.817968) can1 18FEE000#1CDD4F001CDD4F00
(1626905043.820190) can1 14FF0121#FFFFFFFFFFFFFCFF
(1626905043.825832) can1 0CF00400#107D8EB71200F48E
(1626905043.826419) can1 0CF00300#DD0017FFFFFF91FF
(1626905043.827009) can1 18FEF100#C700000000001F30
(1626905043.827650) can1 18FEBD00#00F00000FFFFFFFF
(1626905043.828239) can1 18FE4F3E#0400FFFFFFFFFFFF
(1626905043.829545) can1 14FF0221#FFFFFFFFFFFFFFFF
(1626905043.833068) can1 18F0010B#0001F0FFFF0DFFFF
(1626905043.833720) can1 18FE5127#1DFFFFFFFFFFFFFF
(1626905043.834311) can1 0C0BA027#FDFFFFFFFFFFFFA8
(1626905043.835662) can1 0CF00400#007D8EB81200F48E
(1626905043.836243) can1 18FEDF00#8C0013FF7DD702FF
(1626905043.836842) can1 18FF7400#D500FFFFFFFCFFFF
(1626905043.838358) can1 18FDC40B#FF00FFFFFFFFFFFF
(1626905043.845593) can1 0CF00400#007D8EBB1200F48E
(1626905043.846184) can1 18FD7C00#F8F3C13030FFE3FF
(1626905043.847719) can1 14F00031#CFFFFFFFFFFFFFFF
(1626905043.848279) can1 18F0233D#FFFFFFFFFF2BFFFF
(1626905043.850191) can1 10FF2121#32000FC0C0FFFF00
(1626905043.851127) can1 18FF2221#0300C30701F3FFFF
(1626905043.852291) can1 0CF00A01#00003114FFFFFFFF
(1626905043.852883) can1 10F01A01#0000FFFFFFFFFFFF
(1626905043.853471) can1 10FCFD01#FFFFFFFF0324FFFF
(1626905043.854070) can1 18FD9401#C864FFFF230C4002
(1626905043.854659) can1 18FDA101#2D03FFFFFFFF00FF
(1626905043.855254) can1 10FDA301#FFFFFFFFFFFFFFFF
(1626905043.855842) can1 18FDAA01#FFFFFFFFFFFFFF31
(1626905043.856402) can1 0CF00400#007D8EBB1200F48E
(1626905043.856986) can1 18FDD001#FFFFFF0031FFFFFF
(1626905043.857567) can1 18F0000F#007DFFFF0F7DFFFF
(1626905043.858139) can1 14F00131#FFFFFFFF00FFFFFF
(1626905043.858704) can1 18FEF600#FF004731FFDC28FF
(1626905043.859283) can1 18FF2FA0#DFFFFFFFFAFFFFFF
(1626905043.859867) can1 18FEE400#007FFFFC007FFFFF
(1626905043.860447) can1 1CFE9201#FF0071FFFFFFFFFF
(1626905043.861015) can1 18FEDB01#162416241624FFFF
(1626905043.861586) can1 18F00E3D#8890FFFFFFFFFFFF
(1626905043.862171) can1 18F00F3D#8890FFFFFFFFFFFF
(1626905043.862759) can1 18FD8C3D#01000500FFFFFFFF
(1626905043.863335) can1 18FDB23D#FFFF27280000FFFF
(1626905043.863927) can1 18FDB300#FFFFB626FFFFFFFF
(1626905043.864511) can1 18FDB400#DF28DF28FFFFFFFF
(1626905043.865743) can1 0CF00400#007D8EBB1200F48E
(1626905043.866323) can1 14FF3131#4030030000FFFFF0
(1626905043.866900) can1 10FE6F2A#FFFF00C0007D00FF
(1626905043.867487) can1 18FF3000#0000AFFFFFFFFFFF
(1626905043.868067) can1 0CF02FA0#01F8FAFFFFFFFFFF
(1626905043.868635) can1 14FEF121#F7FFFF0FFFFFFFFF
(1626905043.875618) can1 0CF00400#007D8EBB1200F48E
(1626905043.876215) can1 0CF00300#DD0017FFFFFF91FF
(1626905043.876821) can1 14FFA000#FCFFFFFFFFFFFFFF
(1626905043.877413) can1 18FEF200#4C0000009503FFFF
(1626905043.879129) can1 14FEF131#CFFFFFF300FFFF30
(1626905043.879992) can1 0C00000B#FCFFFAFAFFFFFFFF
(1626905043.883715) can1 0C0BA027#FDFFFFFFFFFFFFB9
(1626905043.885007) can1 18FEF117#F7FFFFFFFFFFFFFF
(1626905043.885595) can1 18FF2017#0000000000000000
(1626905043.886147) can1 0CF00400#007D8EBD1200F48E
(1626905043.886740) can1 0C0A002A#C1FFFFFFFFFFFFFF
(1626905043.887321) can1 18FEDF00#8C0013FF7DD702FF
(1626905043.887906) can1 18FE5600#AB41FFFF1F1F00FF
(1626905043.889243) can1 0CF00421#FFFFFFFFFFFFFFFF
(1626905043.895586) can1 0CF00400#707D8DC11200F48E
(1626905043.896171) can1 18FEC100#B997CC07B997CC07
(1626905043.897441) can1 18F0233D#FFFFFFFFFF2BFFFF
(1626905043.898039) can1 18FD413D#FFFFFFFFFCFCFCFC
(1626905043.899289) can1 14FDA421#FFFFFFFFFFFFFFFF
(1626905043.900004) can1 10FF2121#32000FC0C0FFFF00
(1626905043.901239) can1 0C00100B#FCFFFA00FFFFFFFF
(1626905043.902297) can1 0CF00A01#00003114FFFFFFFF
(1626905043.902885) can1 10F01A01#0000FFFFFFFFFFFF
(1626905043.905620) can1 0CF00400#607D8DC51200F48E
(1626905043.906224) can1 18FEF000#FFFFFFFFFFFFFFFF
(1626905043.906805) can1 0C000F0B#FCFFFA00FFFFFFFF
(1626905043.907366) can1 18FEF700#FFFFFFFF15011501
(1626905043.907950) can1 18FF2FA0#DFFFFFFFFAFFFFFF
(1626905043.909162) can1 14FEF031#FFFFFFFFFFFC00FF
(1626905043.909823) can1 18F00E3D#8890FFFFFFFFFFFF
(1626905043.910394) can1 14FF2321#041CE1FFFFFFFFFF
(1626905043.910970) can1 18F00F3D#8890FFFFFFFFFFFF
(1626905043.911850) can1 0C00290B#FCFFFA00FFFFFFFF
(1626905043.913450) can1 18EA0025#E5FE00
(1626905043.915758) can1 0CF00400#607D8DC51200F48E
(1626905043.916334) can1 0CF02FA0#01F8FAFFFFFFFFFF
(1626905043.916890) can1 18FEE000#1CDD4F001CDD4F00
(1626905043.917466) can1 18FEBF0B#00007D7D7D7D7D7D
(1626905043.918034) can1 18FEE500#2E050500BFF30D00
(1626905043.918611) can1 18FF1919#01030A00FFFFFFFF
(1626905043.919559) can1 14FF0121#FFFFFFFFFFFFFCFF
(1626905043.921310) can1 18FF1B19#FFFCFFFFFFFFFFFF
(1626905043.925825) can1 0CF00400#707D8DC11200F48E
(1626905043.926416) can1 0CF00300#DD0017FFFFFF91FF
(1626905043.927002) can1 18FEF100#C700000000001F30
(1626905043.927808) can1 18FE4F3E#0400FFFFFFFFFFFF
(1626905043.930175) can1 14FF0221#FFFFFFFFFFFFFFFF
(1626905043.933113) can1 18F0010B#0001F0FFFF0DFFFF
(1626905043.933695) can1 0C0BA027#FDFFFFFFFFFFFFCA
(1626905043.935619) can1 0CF00400#107D8EB81200F48E
(1626905043.936224) can1 18FEDF00#8C0013FF7DD602FF
(1626905043.938423) can1 18FDC40B#FF00FFFFFFFFFFFF
(1626905043.944351) can1 18FECA0B#00FF00000000FFFF
(1626905043.945582) can1 0CF00400#107D8EB81200F48E
(1626905043.947877) can1 18F0233D#FFFFFFFFFF2BFFFF
(1626905043.949485) can1 14F00031#CFFFFFFFFFFFFFFF
(1626905043.950193) can1 10FF2121#32000FC0C0FFFF00
(1626905043.952297) can1 0CF00A01#00003114FFFFFFFF
(1626905043.952885) can1 10F01A01#0000FFFFFFFFFFFF
(1626905043.953488) can1 18FECA01#03FF00000000FFFF
(1626905043.954104) can1 10FCFD01#FFFFFFFF0324FFFF
(1626905043.954690) can1 18FD9401#C465FFFF410C4102
(1626905043.955266) can1 18FDA101#2D03FFFFFFFF00FF
(1626905043.955860) can1 10FDA301#FFFFFFFFFFFFFFFF
(1626905043.956421) can1 0CF00400#007D8EBB1200F48E
(1626905043.956996) can1 18FDAA01#FFFFFFFFFFFFFF31
(1626905043.957576) can1 18F0000F#007DFFFF0F7DFFFF
(1626905043.958161) can1 18FDD001#FFFFFF0031FFFFFF
(1626905043.958746) can1 18FF2FA0#DFFFFFFFFAFFFFFF
(1626905043.959327) can1 1CFE9201#FF0071FFFFFFFFFF
(1626905043.959897) can1 14F00131#FFFFFFFF00FFFFFF
(1626905043.960454) can1 18FEDB01#162416241624FFFF
(1626905043.961037) can1 18FD6501#D002FFFFFFFFFFFF
(1626905043.961621) can1 18FD6601#FF4CFFFFFFFFFFFF
(1626905043.962213) can1 18FE6901#0726D126FFFF6425
(1626905043.962818) can1 18FE9701#FFFFFFFFFFFFFFFF
(1626905043.963409) can1 18FE9801#6027FFFFFFFFFFFF
(1626905043.964004) can1 18FE9901#007DFFFFFFFFFFFF
(1626905043.964596) can1 18FE9A01#201DFFFFFFFFFFFF
(1626905043.965184) can1 18FEDD01#FF8B07FFFFFFFFFF
(1626905043.965761) can1 18F00E3D#8890FFFFFFFFFFFF
(1626905043.966317) can1 0CF00400#707D8DBF1200F48E
(1626905043.966893) can1 10FE6F2A#FFFF00C0007D00FF
(1626905043.967469) can1 14FF3131#4030030000FFFFF0
(1626905043.968041) can1 0C040B2A#FFFFCCFFFFFFFF6A
(1626905043.968612) can1 18F00F3D#8890FFFFFFFFFFFF
(1626905043.969193) can1 0CF02FA0#01F8FAFFFFFFFFFF
(1626905043.969761) can1 14FEF121#F7FFFF0FFFFFFFFF
(1626905043.970337) can1 18FECA3D#03FF00000000FFFF
(1626905043.970934) can1 18FF3000#0000AFFFFFFFFFFF
(1626905043.971493) can1 18FFAA01#00001505B57F955C
(1626905043.972086) can1 18FD8C3D#01000500FFFFFFFF
(1626905043.972645) can1 18FFAB01#60170E997D004719
(1626905043.973225) can1 18FDB23D#FFFF27280000FFFF
(1626905043.973817) can1 18FDB300#FFFFB626FFFFFFFF
(1626905043.974389) can1 18FFAC01#0E8416191200F0FF
(1626905043.974982) can1 18FDB400#DF28DF28FFFFFFFF
(1626905043.975579) can1 18FFAD01#A100FFFFFFFFFFFF
(1626905043.976127) can1 0CF00400#707D8DC11200F48E
(1626905043.976707) can1 18FFA63D#00FF00000000FFFF
(1626905043.977284) can1 0CF00300#DD0017FFFFFF91FF
(1626905043.977868) can1 18FFAE01#00FF00000000FFFF
(1626905043.978459) can1 14FFA000#FCFFFFFFFFFFFFFF
(1626905043.979057) can1 18FEF200#4C0000009503FFFF
(1626905043.979652) can1 14FEF131#CFFFFFF300FFFF30
(1626905043.980232) can1 0C00000B#FCFFFAFAFFFFFFFF
(1626905043.983740) can1 0C0BA027#FDFFFFFFFFFFFFEB
(1626905043.984952) can1 18FEC117#FC11CC07FFFFFFFF
(1626905043.985533) can1 18FD0417#C0FFFFFFFFFFFFFF
(1626905043.986083) can1 0CF00400#707D8DC11200F48E
(1626905043.986676) can1 0C0A002A#C1FFFFFFFFFFFFFF
(1626905043.987238) can1 18FEDF00#8C0013FF7DD602FF
(1626905043.987803) can1 18FEF717#FFFFFFFF1601FFFF
(1626905043.988384) can1 18FD9B3D#FFFFFFFFFFFFFFFF
(1626905043.988960) can1 18FEFA17#FFE2E5FFFFFFFFFF
(1626905043.989534) can1 18FF1817#001000400000FEFF
(1626905043.990112) can1 0CF00421#FFFFFFFFFFFFFFFF
(1626905043.990694) can1 18FF1917#00FFFFFF000000E0
(1626905043.991263) can1 18FECA17#00FF00000000FFFF
(1626905043.991843) can1 18FEFC17#FF3AFFFFFFFFFFFF
(1626905043.992419) can1 18FEF117#F7FFFFFFFFFFFFFF
(1626905043.993007) can1 18FF2017#0000000000000000
(1626905043.993587) can1 18E0FF17#FFFFFF3FFFFFFFFF
(1626905043.994163) can1 18FD0517#03033FFFFFFFFFFF
(1626905043.995748) can1 0CF00400#707D8DC11200F48E
(1626905043.997595) can1 18F0233D#FFFFFFFFFF2BFFFF
(1626905043.998183) can1 18FD413D#FFFFFFFFFCFCFCFC
(1626905043.999691) can1 14FDA421#FFFFFFFFFFFFFFFF
(1626905044.000376) can1 10FF2121#32000FC0C0FFFF00
(1626905044.002288) can1 0CF00A01#00003114FFFFFFFF
(1626905044.002888) can1 10F01A01#0000FFFFFFFFFFFF
(1626905044.005628) can1 0CF00400#707D8DBF1200F48E
(1626905044.006239) can1 18FEF000#FFFFFFFFFFFFFFFF
(1626905044.006827) can1 18FF2FA0#DFFFFFFFFAFFFFFF
(1626905044.008121) can1 18FFA53D#000A391BA726B326
(1626905044.009607) can1 14FEF031#FFFFFFFFFFFC00FF
(1626905044.010171) can1 18F00E3D#8890FFFFFFFFFFFF
(1626905044.010745) can1 14FF2321#041CE1FFFFFFFFFF
(1626905044.011316) can1 18F00F3D#8890FFFFFFFFFFFF
(1626905044.015665) can1 0CF00400#707D8DBF1200F48E
(1626905044.016242) can1 18FEE000#1CDD4F001CDD4F00
(1626905044.016820) can1 0CF02FA0#01F8FAFFFFFFFFFF
(1626905044.017396) can1 18FEBF0B#00007D7D7D7D7D7D
(1626905044.020157) can1 14FF0121#FFFFFFFFFFFFFCFF
(1626905044.025870) can1 0CF00400#707D8DC11200F48E
(1626905044.026456) can1 0CF00300#DD0017FFFFFF91FF
(1626905044.027045) can1 18FEF100#C700000000001F30
(1626905044.027677) can1 18FD0700#0300003FFCFFFFFF
(1626905044.028265) can1 18FE4F3E#0400FFFFFFFFFFFF
(1626905044.030185) can1 14FF0221#FFFFFFFFFFFFFFFF
(1626905044.033178) can1 18F0010B#0001F0FFFF0DFFFF
(1626905044.033764) can1 0C0BA027#FDFFFFFFFFFFFFFC
(1626905044.035622) can1 0CF00400#607D8DC61200F48E
(1626905044.036202) can1 18FEDF00#8C0013FF7DDA02FF
(1626905044.038502) can1 18FDC40B#FF00FFFFFFFFFFFF
(1626905044.045570) can1 0CF00400#507D8DCC1200F48E
(1626905044.047861) can1 18F0233D#FFFFFFFFFF2CFFFF
(1626905044.049487) can1 14F00031#CFFFFFFFFFFFFFFF
(1626905044.050189) can1 10FF2121#32000FC0C0FFFF00
(1626905044.052510) can1 0CF00A01#00003114FFFFFFFF
(1626905044.053098) can1 10F01A01#0000FFFFFFFFFFFF
(1626905044.053685) can1 10FCFD01#FFFFFFFF0324FFFF
(1626905044.054249) can1 18FD9401#C465FFFF5B0C3F02
(1626905044.054838) can1 18FDA101#2D03FFFFFFFF00FF
(1626905044.055429) can1 10FDA301#FFFFFFFFFFFFFFFF
(1626905044.056018) can1 18FDAA01#FFFFFFFFFFFFFF31
(1626905044.056570) can1 0CF00400#407D8DCD1200F48E
(1626905044.057154) can1 18FDD001#FFFFFF0031FFFFFF
(1626905044.057734) can1 18F0000F#007DFFFF0F7DFFFF
(1626905044.058319) can1 18FF2FA0#DFFFFFFFFAFFFFFF
(1626905044.058903) can1 1CFE9201#FF0071FFFFFFFFFF
(1626905044.059459) can1 18FEDB01#E623E623E623FFFF
(1626905044.060031) can1 14F00131#FFFFFFFF00FFFFFF
(1626905044.060599) can1 18FD3C3D#DC10FFFFFFFDFFFF
(1626905044.061171) can1 18F00E3D#8890FFFFFFFFFFFF
(1626905044.061754) can1 18F00F3D#8890FFFFFFFFFFFF
(1626905044.062378) can1 18FD8C3D#01000500FFFFFFFF
(1626905044.062971) can1 18FDB23D#FFFF27280000FFFF
(1626905044.063552) can1 18FDB300#FFFFB626FFFFFFFF
(1626905044.064133) can1 18FDB400#DF28DF28FFFFFFFF
(1626905044.065720) can1 0CF00400#507D8DCC1200F48E
(1626905044.066308) can1 14FF3131#4030030000FFFFF0
(1626905044.066886) can1 10FE6F2A#FFFF00C0007D00FF
(1626905044.067467) can1 18FF3000#0000AFFFFFFFFFFF
(1626905044.068045) can1 0CF02FA0#01F8FAFFFFFFFFFF
(1626905044.069390) can1 14FEF121#F7FFFF0FFFFFFFFF
(1626905044.075611) can1 0CF00400#607D8DC61200F48E
(1626905044.076197) can1 0CF00300#DD0017FFFFFF91FF
(1626905044.076805) can1 14FFA000#FCFFFFFFFFFFFFFF
(1626905044.077399) can1 18FEF200#4C0000009503FFFF
(1626905044.078150) can1 18FFA33D#0000EF058010FFFF
(1626905044.079693) can1 14FEF131#CFFFFFF300FFFF30
(1626905044.080266) can1 0C00000B#FCFFFAFAFFFFFFFF
(1626905044.083713) can1 18FE5127#1DFFFFFFFFFFFFFF
(1626905044.084294) can1 0C0BA027#FDFFFFFFFFFFFF0D
(1626905044.084869) can1 18FEF117#F7FFFFFFFFFFFFFF
(1626905044.085457) can1 18FF2017#0000000000000000
(1626905044.086005) can1 0CF00400#507D8DC91200F48E
(1626905044.086597) can1 0C0A002A#C1FFFFFFFFFFFFFF
(1626905044.087185) can1 18FEDF00#8C0013FF7DDA02FF
(1626905044.088432) can1 18FFA43D#D606D6060000FDFF
(1626905044.089605) can1 0CF00421#FFFFFFFFFFFFFFFF
(1626905044.095627) can1 0CF00400#407D8DCD1200F48E
(1626905044.097488) can1 18F0233D#FFFFFFFFFF2CFFFF
(1626905044.098073) can1 18FD413D#FFFFFFFFFCFCFCFC
(1626905044.098639) can1 18FFA23D#0000DF1A92274F10
(1626905044.099694) can1 10FF2121#32000FC0C0FFFF00
(1626905044.100381) can1 14FDA421#FFFFFFFFFFFFFFFF
(1626905044.101366) can1 0C00100B#FCFFFA00FFFFFFFF
(1626905044.102506) can1 0CF00A01#00003114FFFFFFFF
(1626905044.103098) can1 10F01A01#0000FFFFFFFFFFFF
(1626905044.105722) can1 0CF00400#307D8DD31200F48D
(1626905044.106334) can1 18FEF000#FFFFFFFFFFFFFFFF
(1626905044.106914) can1 0C000F0B#FCFFFA00FFFFFFFF
(1626905044.107494) can1 18FF2FA0#DFFFFFFFFAFFFFFF
(1626905044.108246) can1 18FFA03D#1D111C001A001AFF
(1626905044.109599) can1 14FEF031#FFFFFFFFFFFC00FF
(1626905044.110162) can1 18F00E3D#8890FFFFFFFFFFFF
(1626905044.110738) can1 14FF2321#041CE1FFFFFFFFFF
(1626905044.111306) can1 18F00F3D#8890FFFFFFFFFFFF
(1626905044.111983) can1 0C00290B#FCFFFA00FFFFFFFF
(1626905044.115728) can1 0CF00400#307D8DD31200F48D
(1626905044.116308) can1 0CF02FA0#01F8FAFFFFFFFFFF
(1626905044.116864) can1 18FEE000#1CDD4F001CDD4F00
(1626905044.117439) can1 18FEBF0B#00007D7D7D7D7D7D
(1626905044.118016) can1 18FECA2A#00FF00000000FFFF
(1626905044.118581) can1 18FFA13D#AB03FE021B000000
(1626905044.119640) can1 14FF0121#FFFFFFFFFFFFFCFF
(1626905044.125832) can1 0CF00400#407D8DCF1200F48E
(1626905044.126423) can1 0CF00300#DD0016FFFFFF91FF
(1626905044.127018) can1 18FEF100#C700000000001F30
(1626905044.127597) can1 18FECAA0#00FF00000000FFFF
(1626905044.128185) can1 18FE4F3E#0400FFFFFFFFFFFF
(1626905044.130163) can1 14FF0221#FFFFFFFFFFFFFFFF
(1626905044.133237) can1 18F0010B#0001F0FFFF0DFFFF
(1626905044.133814) can1 0C0BA027#FDFFFFFFFFFFFF1E
(1626905044.135622) can1 0CF00400#607D8DC61200F48E
(1626905044.136201) can1 18FEDF00#8C0013FF7DDB02FF
(1626905044.138557) can1 18FDC40B#FF00FFFFFFFFFFFF
(1626905044.145561) can1 0CF00400#707D8DC11200F48E
(1626905044.147854) can1 18F0233D#FFFFFFFFFF2CFFFF
(1626905044.149513) can1 14F00031#CFFFFFFFFFFFFFFF
(1626905044.150241) can1 18E00021#FFFFFFFFFFFFFFFF
(1626905044.150906) can1 10FF2121#32000FC0C0FFFF00
(1626905044.152296) can1 0CF00A01#00003814FFFFFFFF
(1626905044.152887) can1 10F01A01#0000FFFFFFFFFFFF
(1626905044.153478) can1 10FCFD01#FFFFFFFF0624FFFF
(1626905044.154088) can1 18FD9401#C465FFFF790C3C02
(1626905044.154668) can1 18FDA101#2D03FFFFFFFF00FF
(1626905044.155264) can1 10FDA301#FFFFFFFFFFFFFFFF
(1626905044.155869) can1 18FDAA01#FFFFFFFFFFFFFF31
(1626905044.156406) can1 0CF00400#707D8DC11200F48E
(1626905044.156988) can1 18FDD001#FFFFFF0031FFFFFF
(1626905044.157567) can1 18F0000F#007DFFFF0F7DFFFF
(1626905044.158150) can1 18FF2FA0#DFFFFFFFFAFFFFFF
(1626905044.158735) can1 1CFE9201#FF0071FFFFFFFFFF
(1626905044.159290) can1 18FEDB01#E623E623E623FFFF
(1626905044.159863) can1 14F00131#FFFFFFFF00FFFFFF
(1626905044.160441) can1 18F00E3D#8890FFFFFFFFFFFF
(1626905044.161013) can1 18F00F3D#8890FFFFFFFFFFFF
(1626905044.161588) can1 18FD8C3D#01000500FFFFFFFF
(1626905044.162162) can1 18FDB23D#FFFF27280000FFFF
(1626905044.162762) can1 18FDB300#FFFFB626FFFFFFFF
(1626905044.163340) can1 18FDB400#DF28DF28FFFFFFFF
(1626905044.165679) can1 0CF00400#607D8DC31200F48E
(1626905044.166291) can1 18FF3000#0000AFFFFFFFFFFF
(1626905044.166868) can1 10FE6F2A#FFFF00C0007D00FF
(1626905044.167443) can1 14FF3131#4030030000FFFFF0
(1626905044.168015) can1 0C040B2A#FFFFCCFFFFFFFF7B
(1626905044.168599) can1 0CF02FA0#01F8FAFFFFFFFFFF
(1626905044.169531) can1 10FECA47#00FF00000000FFFF
(1626905044.170207) can1 14FEF121#F7FFFF0FFFFFFFFF
(1626905044.175607) can1 0CF00400#607D8DC51200F48E
(1626905044.176194) can1 0CF00300#DD0017FFFFFF91FF
(1626905044.176799) can1 14FFA000#FCFFFFFFFFFFFFFF
(1626905044.177394) can1 18FEF200#480000009503FFFF
(1626905044.179421) can1 10FECA31#00FF00000000FFFF
(1626905044.180128) can1 14FEF131#CFFFFFF300FFFF30
(1626905044.180695) can1 0C00000B#FCFFFAFAFFFFFFFF
(1626905044.183713) can1 0C0BA027#FDFFFFFFFFFFFF2F
(1626905044.185575) can1 0CF00400#507D8DC61200F48E
(1626905044.186167) can1 18FEDF00#8C0013FF7DDB02FF
(1626905044.186759) can1 0C0A002A#C1FFFFFFFFFFFFFF
(1626905044.187431) can1 18FEF117#F7FFFFFFFFFFFFFF
(1626905044.188020) can1 18FF2017#0000000000000000
(1626905044.189403) can1 0CF00421#FFFFFFFFFFFFFFFF
(1626905044.190076) can1 10FECA21#00FF00000000FFFF
(1626905044.195588) can1 0CF00400#607D8DC61200F48E
(1626905044.197448) can1 18F0233D#FFFFFFFFFF2CFFFF
(1626905044.198041) can1 18FD413D#FFFFFFFFFCFCFCFC
(1626905044.199720) can1 14FDA421#FFFFFFFFFFFFFFFF
(1626905044.200435) can1 10FF2121#32000FC0C0FFFF00
(1626905044.201123) can1 1CFEC347#FFFFFFFFFFFFFFFF
(1626905044.202290) can1 0CF00A01#00004014FFFFFFFF
(1626905044.202879) can1 10F01A01#0000FFFFFFFFFFFF
(1626905044.205618) can1 0CF00400#607D8DC31200F48E
(1626905044.206221) can1 18FEF000#FFFFFFFFFFFFFFFF
(1626905044.206809) can1 18FF2FA0#DFFFFFFFFAFFFFFF
(1626905044.209644) can1 14FEF031#FFFFFFFFFFFC00FF
(1626905044.210208) can1 18F00E3D#8890FFFFFFFFFFFF
(1626905044.210785) can1 14FF2321#041CE1FFFFFFFFFF
(1626905044.211353) can1 18F00F3D#8890FFFFFFFFFFFF
(1626905044.215661) can1 0CF00400#707D8DC11200F48E
(1626905044.216229) can1 18FEE000#1CDD4F001CDD4F00
(1626905044.216808) can1 0CF02FA0#01F8FAFFFFFFFFFF
(1626905044.217384) can1 18FEBF0B#00007D7D7D7D7D7D
(1626905044.219545) can1 18FF2421#CDF0FCFFFFFFFFFF
(1626905044.220237) can1 14FF0121#FFFFFFFFFFFFFCFF
(1626905044.225836) can1 0CF00400#707D8DC11200F48E
(1626905044.226428) can1 0CF00300#DD0017FFFFFF91FF
(1626905044.227015) can1 18FEF100#C700000000001F30
(1626905044.228004) can1 18FE4F3E#0400FFFFFFFFFFFF
(1626905044.229680) can1 10FECA25#00FF00000000FFFF
(1626905044.230434) can1 14FF0221#FFFFFFFFFFFFFFFF
(1626905044.233302) can1 18F0010B#0001F0FFFF0DFFFF
(1626905044.233883) can1 0C0BA027#FDFFFFFFFFFFFF20
(1626905044.235618) can1 0CF00400#607D8DC51200F48E
(1626905044.236198) can1 18FEDF00#8C0013FF7DDC02FF
(1626905044.236786) can1 18FEEF00#9AFFFF67FFFFFFFA
(1626905044.238618) can1 18FDC40B#FF00FFFFFFFFFFFF
(1626905044.239707) can1 18FEF521#FFFFFFFFFFFFFFFF
(1626905044.245566) can1 0CF00400#507D8DC91200F48E
(1626905044.247864) can1 18F0233D#FFFFFFFFFF2CFFFF
(1626905044.249434) can1 14F00031#CFFFFFFFFFFFFFFF
(1626905044.250215) can1 10FF2121#32000FC0C0FFFF00
(1626905044.252299) can1 0CF00A01#00003814FFFFFFFF
(1626905044.252887) can1 10F01A01#0000FFFFFFFFFFFF
(1626905044.253479) can1 10FCFD01#FFFFFFFF0624FFFF
(1626905044.254071) can1 18FD9401#4865FFFFAF0C3D02
(1626905044.254655) can1 18FDA101#2D03FFFFFFFF00FF
(1626905044.255256) can1 10FDA301#FFFFFFFFFFFFFFFF
(1626905044.255844) can1 18FDAA01#FFFFFFFFFFFFFF31
(1626905044.256395) can1 0CF00400#507D8DCC1200F48E
(1626905044.256980) can1 18FDD001#FFFFFF0031FFFFFF
(1626905044.257559) can1 18F0000F#007DFFFF0F7DFFFF
(1626905044.258143) can1 18FF2FA0#DFFFFFFFFAFFFFFF
(1626905044.258728) can1 1CFE9201#FF0071FFFFFFFFFF
(1626905044.259283) can1 18FEDB01#E623E623E623FFFF
(1626905044.259867) can1 14F00131#FFFFFFFF00FFFFFF
(1626905044.260424) can1 18F00E3D#8890FFFFFFFFFFFF
(1626905044.261001) can1 18F00F3D#8890FFFFFFFFFFFF
(1626905044.261580) can1 18FD8C3D#01000500FFFFFFFF
(1626905044.262159) can1 18FDB23D#FFFF27280000FFFF
(1626905044.262781) can1 18FDB300#FFFFB626FFFFFFFF
(1626905044.263339) can1 18FDB400#DF28DF28FFFFFFFF
(1626905044.265693) can1 0CF00400#407D8DCD1200F48E
(1626905044.266304) can1 18FF3000#0000AFFFFFFFFFFF
(1626905044.266881) can1 10FE6F2A#FFFF00C0007D00FF
(1626905044.267455) can1 14FF3131#4030030000FFFFF0
(1626905044.268035) can1 0CF02FA0#01F8FAFFFFFFFFFF
(1626905044.269643) can1 14FEF121#F7FFFF0FFFFFFFFF
(1626905044.275616) can1 0CF00400#407D8DCD1200F48E
(1626905044.276203) can1 0CF00300#DD0016FFFFFF91FF
(1626905044.276811) can1 14FFA000#FCFFFFFFFFFFFFFF
(1626905044.277404) can1 18FEF200#480000009503FFFF
(1626905044.279503) can1 14FEF131#CFFFFFF300FFFF30
(1626905044.280252) can1 0C00000B#FCFFFAFAFFFFFFFF
(1626905044.283695) can1 0C0BA027#FDFFFFFFFFFFFF31
(1626905044.284610) can1 18FEF117#F7FFFFFFFFFFFFFF
(1626905044.285196) can1 18FF2017#0000000000000000
(1626905044.285749) can1 0CF00400#507D8DCC1200F48E
(1626905044.286332) can1 18FEDF00#8C0013FF7DDC02FF
(1626905044.286921) can1 0C0A002A#C1FFFFFFFFFFFFFF
(1626905044.289418) can1 0CF00421#FFFFFFFFFFFFFFFF
(1626905044.295590) can1 0CF00400#407D8DCD1200F48E
(1626905044.297444) can1 18F0233D#FFFFFFFFFF2CFFFF
(1626905044.298027) can1 18FD413D#FFFFFFFFFCFCFCFC
(1626905044.299461) can1 14FDA421#FFFFFFFFFFFFFFFF
(1626905044.300194) can1 10FF2121#32000FC0C0FFFF00
(1626905044.301492) can1 0C00100B#FCFFFA00FFFFFFFF
(1626905044.302298) can1 0CF00A01#00003814FFFFFFFF
(1626905044.302892) can1 10F01A01#0000FFFFFFFFFFFF
(1626905044.305616) can1 0CF00400#307D8DD11200F48D
(1626905044.306218) can1 18FEF000#FFFFFFFFFFFFFFFF
(1626905044.306806) can1 18FF2FA0#DFFFFFFFFAFFFFFF
(1626905044.307377) can1 0C000F0B#FCFFFA00FFFFFFFF
(1626905044.309433) can1 14FEF031#FFFFFFFFFFFC00FF
(1626905044.309997) can1 18F00E3D#8890FFFFFFFFFFFF
(1626905044.310574) can1 14FF2321#041CE1FFFFFFFFFF
(1626905044.311142) can1 18F00F3D#8890FFFFFFFFFFFF
(1626905044.312110) can1 0C00290B#FCFFFA00FFFFFFFF
(1626905044.315670) can1 0CF00400#307D8DD31200F48D
(1626905044.316258) can1 14FD3E00#B026FFB026FFFFFF
(1626905044.316838) can1 0CF02FA0#01F8FAFFFFFFFFFF
(1626905044.317394) can1 18FEE000#1CDD4F001CDD4F00
(1626905044.317969) can1 18FEBF0B#00007D7D7D7D7D7D
(1626905044.319603) can1 18FEF621#FFFFFFFFFFFFFFFF
(1626905044.320290) can1 14FF0121#FFFFFFFFFFFFFCFF
(1626905044.325822) can1 0CF00400#307D8DD11200F48D
(1626905044.326410) can1 0CF00300#DD0016FFFFFF91FF
(1626905044.327001) can1 18FEF100#C700000000001F30
(1626905044.328068) can1 18FE4F3E#0400FFFFFFFFFFFF
(1626905044.329635) can1 18FEF721#FFFFFFFF1501FFFF
(1626905044.330367) can1 14FF0221#FFFFFFFFFFFFFFFF
(1626905044.333367) can1 18F0010B#0001F0FFFF0DFFFF
(1626905044.333945) can1 18FE5127#1DFFFFFFFFFFFFFF
(1626905044.334551) can1 0C0BA027#FDFFFFFFFFFFFF42
(1626905044.335639) can1 0CF00400#507D8DCC1200F48E
(1626905044.336222) can1 18FEDF00#8C0013FF7DDB02FF
(1626905044.338685) can1 18FDC40B#FF00FFFFFFFFFFFF
(1626905044.339741) can1 18E00031#FFFFFFFFFFF3FFFF
(1626905044.345552) can1 0CF00400#607D8DC61200F48E
(1626905044.347845) can1 18F0233D#FFFFFFFFFF2CFFFF
(1626905044.349421) can1 14F00031#CFFFFFFFFFFFFFFF
(1626905044.350193) can1 10FF2121#32000FC0C0FFFF00
(1626905044.352286) can1 0CF00A01#00004014FFFFFFFF
(1626905044.352877) can1 10F01A01#0000FFFFFFFFFFFF
(1626905044.353470) can1 10FCFD01#FFFFFFFF0624FFFF
(1626905044.354061) can1 18FD9401#C864FFFFC70C3D02
(1626905044.354650) can1 18FDA101#2D03FFFFFFFF00FF
(1626905044.355245) can1 10FDA301#FFFFFFFFFFFFFFFF
(1626905044.355833) can1 18FDAA01#FFFFFFFFFFFFFF31
(1626905044.356385) can1 0CF00400#607D8DC51200F48E
(1626905044.356968) can1 18FDD001#FFFFFF0031FFFFFF
(1626905044.357548) can1 18F0000F#007DFFFF0F7DFFFF
(1626905044.358132) can1 18FF2FA0#DFFFFFFFFAFFFFFF
(1626905044.358696) can1 18FEF600#FF004731FFDC28FF
(1626905044.359272) can1 1CFE9201#FF0071FFFFFFFFFF
(1626905044.359855) can1 14F00131#FFFFFFFF00FFFFFF
(1626905044.360400) can1 18FEDB01#E623E623E623FFFF
(1626905044.360970) can1 18F00E3D#8890FFFFFFFFFFFF
(1626905044.361549) can1 18F00F3D#8890FFFFFFFFFFFF
(1626905044.362154) can1 18FD8C3D#01000500FFFFFFFF
(1626905044.362741) can1 18FDB23D#FFFF27280000FFFF
(1626905044.363325) can1 18FDB300#FFFFB626FFFFFFFF
(1626905044.363910) can1 18FDB400#DF28DF28FFFFFFFF
(1626905044.365702) can1 0CF00400#607D8DC31200F48E
(1626905044.366282) can1 14FF3131#4030030000FFFFF0
(1626905044.366858) can1 10FE6F2A#FFFF00C0007D00FF
(1626905044.367446) can1 18FF3000#0000AFFFFFFFFFFF
(1626905044.368018) can1 0C040B2A#FFFFCCFFFFFFFF8C
(1626905044.368603) can1 0CF02FA0#01F8FAFFFFFFFFFF
(1626905044.369590) can1 14FEF121#F7FFFF0FFFFFFFFF
(1626905044.375604) can1 0CF00400#607D8DC31200F48E
(1626905044.376197) can1 0CF00300#DD0017FFFFFF91FF
(1626905044.376801) can1 14FFA000#FCFFFFFFFFFFFFFF
(1626905044.377393) can1 18FEF200#480000009503FFFF
(1626905044.379484) can1 14FEF131#CFFFFFF300FFFF30
(1626905044.380316) can1 0C00000B#FCFFFAFAFFFFFFFF
(1626905044.383690) can1 0C0BA027#FDFFFFFFFFFFFF53
(1626905044.384619) can1 18FEF117#F7FFFFFFFFFFFFFF
(1626905044.385207) can1 18FF2017#0000000000000000
(1626905044.385777) can1 0CF00400#607D8DC51200F48E
(1626905044.386344) can1 18FEDF00#8C0013FF7DDB02FF
(1626905044.386937) can1 0C0A002A#C1FFFFFFFFFFFFFF
(1626905044.389361) can1 0CF00421#FFFFFFFFFFFFFFFF
(1626905044.395609) can1 0CF00400#507D8DC51200F48E
(1626905044.396424) can1 18A9FE31#FFFFFFFFFFFFFFFF
(1626905044.397460) can1 18F0233D#FFFFFFFFFF2CFFFF
(1626905044.398048) can1 18FD413D#FFFFFFFFFCFCFCFC
(1626905044.399648) can1 14FDA421#FFFFFFFFFFFFFFFF
(1626905044.400320) can1 10FF2121#32000FC0C0FFFF00
(1626905044.402288) can1 0CF00A01#00004014FFFFFFFF
(1626905044.402882) can1 10F01A01#0000FFFFFFFFFFFF
(1626905044.405642) can1 0CF00400#607D8DC31200F48E
(1626905044.406243) can1 18FEF000#FFFFFFFFFFFFFFFF
(1626905044.406836) can1 18FF2FA0#DFFFFFFFFAFFFFFF
(1626905044.409493) can1 14FEF031#FFFFFFFFFFFC00FF
(1626905044.410057) can1 18F00E3D#8890FFFFFFFFFFFF
(1626905044.410634) can1 14FF2321#041CE1FFFFFFFFFF
(1626905044.411201) can1 18F00F3D#8890FFFFFFFFFFFF
(1626905044.415657) can1 0CF00400#607D8DC31200F48E
(1626905044.416225) can1 18FF1919#01030A00FFFFFFFF
(1626905044.416805) can1 0CF02FA0#01F8FAFFFFFFFFFF
(1626905044.417360) can1 18FEE000#1CDD4F001CDD4F00
(1626905044.417936) can1 18FEBF0B#00007D7D7D7D7D7D
(1626905044.420145) can1 14FF0121#FFFFFFFFFFFFFCFF
(1626905044.421277) can1 18FF1B19#FFFCFFFFFFFFFFFF
(1626905044.425812) can1 0CF00400#707D8DC11200F48E
(1626905044.426393) can1 18E00019#00FFFFFFFFFFFFFF
(1626905044.426968) can1 0CF00300#DD0017FFFFFF91FF
(1626905044.427598) can1 18FEF100#C700000000001F30
(1626905044.428187) can1 18FE4F3E#0400FFFFFFFFFFFF
(1626905044.430169) can1 14FF0221#FFFFFFFFFFFFFFFF
(1626905044.431479) can1 18FEF719#FFFFFFFFFFFF1601
(1626905044.433430) can1 18F0010B#0001F0FFFF0DFFFF
(1626905044.434006) can1 0C0BA027#FDFFFFFFFFFFFF64
(1626905044.435617) can1 0CF00400#607D8DC31200F48E
(1626905044.436206) can1 18FEDF00#8C0013FF7DDD02FF
(1626905044.438750) can1 18FDC40B#FF00FFFFFFFFFFFF
(1626905044.445554) can1 0CF00400#607D8DC51200F48E
(1626905044.447848) can1 18F0233D#FFFFFFFFFF2CFFFF
(1626905044.449394) can1 14F00031#CFFFFFFFFFFFFFFF
(1626905044.450192) can1 10FF2121#32000FC0C0FFFF00
(1626905044.452290) can1 0CF00A01#00004014FFFFFFFF
(1626905044.452901) can1 10F01A01#0000FFFFFFFFFFFF
(1626905044.453478) can1 10FCFD01#FFFFFFFF0624FFFF
(1626905044.454073) can1 18FD9401#C864FFFFE10C3E02
(1626905044.454661) can1 18FDA101#2D03FFFFFFFF00FF
(1626905044.455256) can1 10FDA301#FFFFFFFFFFFFFFFF
(1626905044.455844) can1 18FDAA01#FFFFFFFFFFFFFF31
(1626905044.456396) can1 0CF00400#507D8DC61200F48E
(1626905044.456995) can1 18FDD001#FFFFFF0031FFFFFF
(1626905044.457562) can1 18F0000F#007DFFFF0F7DFFFF
(1626905044.458145) can1 18FF2FA0#DFFFFFFFFAFFFFFF
(1626905044.458726) can1 1CFE9201#FF0071FFFFFFFFFF
(1626905044.459286) can1 18FEDB01#E623E623E623FFFF
(1626905044.459869) can1 18FD6501#D002FFFFFFFFFFFF
(1626905044.460440) can1 14F00131#FFFFFFFF00FFFFFF
(1626905044.461016) can1 18F00E3D#8890FFFFFFFFFFFF
(1626905044.461588) can1 18F00F3D#8890FFFFFFFFFFFF
(1626905044.462167) can1 18FD8C3D#01000500FFFFFFFF
(1626905044.462756) can1 18FDB23D#FFFF27280000FFFF
(1626905044.463336) can1 18FDB300#FFFFB626FFFFFFFF
(1626905044.463920) can1 18FDB400#DF28DF28FFFFFFFF
(1626905044.465688) can1 0CF00400#507D8DC91200F48E
(1626905044.466270) can1 14FF3131#4030030000FFFFF0
(1626905044.466847) can1 10FE6F2A#FFFF00C0007D00FF
(1626905044.467433) can1 18FF3000#0000AFFFFFFFFFFF
(1626905044.468014) can1 0CF02FA0#01F8FAFFFFFFFFFF
(1626905044.469385) can1 14FEF121#F7FFFF0FFFFFFFFF
(1626905044.475603) can1 0CF00400#507D8DC91200F48E
(1626905044.476189) can1 0CF00300#DD0017FFFFFF91FF
(1626905044.476793) can1 14FFA000#FCFFFFFFFFFFFFFF
(1626905044.477385) can1 18FEF200#480000009503FFFF
(1626905044.479817) can1 14FEF131#CFFFFFF300FFFF30
(1626905044.480394) can1 0C00000B#FCFFFAFAFFFFFFFF
(1626905044.483681) can1 0C0BA027#FDFFFFFFFFFFFF75
(1626905044.484905) can1 18FEF117#F7FFFFFFFFFFFFFF
(1626905044.485493) can1 18FF2017#0000000000000000
(1626905044.486060) can1 0CF00400#407D8DCC1200F48E
(1626905044.486646) can1 0C0A002A#C1FFFFFFFFFFFFFF
(1626905044.487259) can1 18FEDF00#8C0013FF7DDD02FF
(1626905044.489446) can1 0CF00421#FFFFFFFFFFFFFFFF
(1626905044.495604) can1 0CF00400#407D8DCC1200F48E
(1626905044.497443) can1 18F0233D#FFFFFFFFFF2CFFFF
(1626905044.498030) can1 18FD413D#FFFFFFFFFCFCFCFC
(1626905044.499508) can1 14FDA421#FFFFFFFFFFFFFFFF
(1626905044.500271) can1 10FF2121#32000FC0C0FFFF00
(1626905044.501627) can1 0C00100B#FCFFFA00FFFFFFFF
(1626905044.502286) can1 0CF00A01#00003814FFFFFFFF
(1626905044.502903) can1 10F01A01#0000FFFFFFFFFFFF
(1626905044.505610) can1 0CF00400#407D8DCD1200F48D
(1626905044.506267) can1 18FEF000#FFFFFFFFFFFFFFFF
(1626905044.506808) can1 18FF2FA0#DFFFFFFFFAFFFFFF
(1626905044.507374) can1 0C000F0B#FCFFFA00FFFFFFFF
(1626905044.509424) can1 14FEF031#FFFFFFFFFFFC00FF
(1626905044.509988) can1 18F00E3D#8890FFFFFFFFFFFF
(1626905044.510624) can1 14FF2321#041CE1FFFFFFFFFF
(1626905044.511134) can1 18F00F3D#8890FFFFFFFFFFFF
(1626905044.512242) can1 0C00290B#FCFFFA00FFFFFFFF
(1626905044.515672) can1 0CF00400#407D8DCC1200F48E
(1626905044.516237) can1 18FEE000#1CDD4F001CDD4F00
(1626905044.516816) can1 0CF02FA0#01F8FAFFFFFFFFFF
(1626905044.517560) can1 18FEBF0B#00007D7D7D7D7D7D
(1626905044.520153) can1 14FF0121#FFFFFFFFFFFFFCFF
(1626905044.525832) can1 0CF00400#507D8DC61200F48E
(1626905044.526420) can1 0CF00300#DD0017FFFFFF91FF
(1626905044.527014) can1 18FEF100#C700000000001F30
(1626905044.528196) can1 18FE4F3E#0400FFFFFFFFFFFF
(1626905044.530161) can1 14FF0221#FFFFFFFFFFFFFFFF
(1626905044.533502) can1 18F0010B#0001F0FFFF0DFFFF
(1626905044.534117) can1 0C0BA027#FDFFFFFFFFFFFF86
(1626905044.535628) can1 0CF00400#607D8DC31200F48E
(1626905044.536208) can1 18FEDF00#8C0013FF7DDB02FF
(1626905044.538820) can1 18FDC40B#FF00FFFFFFFFFFFF
(1626905044.545573) can1 0CF00400#707D8DC11200F48E
(1626905044.547867) can1 18F0233D#FFFFFFFFFF2CFFFF
(1626905044.549433) can1 14F00031#CFFFFFFFFFFFFFFF
(1626905044.550211) can1 10FF2121#32000FC0C0FFFF00
(1626905044.552299) can1 0CF00A01#00003814FFFFFFFF
(1626905044.552886) can1 10F01A01#0000FFFFFFFFFFFF
(1626905044.553478) can1 10FCFD01#FFFFFFFF0624FFFF
(1626905044.554078) can1 18FD9401#7864FFFFFB0C3D02
(1626905044.554666) can1 18FDA101#2D03FFFFFFFF00FF
(1626905044.555262) can1 10FDA301#FFFFFFFFFFFFFFFF
(1626905044.555850) can1 18FDAA01#FFFFFFFFFFFFFF31
(1626905044.556406) can1 0CF00400#707D8DBF1200F48E
(1626905044.556990) can1 18FDD001#FFFFFF0031FFFFFF
(1626905044.557570) can1 18F0000F#007DFFFF0F7DFFFF
(1626905044.558154) can1 18FF2FA0#DFFFFFFFFAFFFFFF
(1626905044.558733) can1 1CFE9201#FF0071FFFFFFFFFF
(1626905044.559299) can1 18FEDB01#162416241624FFFF
(1626905044.559870) can1 14F00131#FFFFFFFF00FFFFFF
(1626905044.560435) can1 18F00E3D#8890FFFFFFFFFFFF
(1626905044.561032) can1 18F00F3D#8890FFFFFFFFFFFF
(1626905044.561597) can1 18FD8C3D#01000500FFFFFFFF
(1626905044.562171) can1 18FDB23D#FFFF27280000FFFF
(1626905044.562768) can1 18FDB300#FFFFB626FFFFFFFF
(1626905044.563363) can1 18FDB400#DF28DF28FFFFFFFF
(1626905044.565679) can1 0CF00400#707D8DBD1200F48E
(1626905044.566256) can1 14FF3131#4030030000FFFFF0
(1626905044.566835) can1 10FE6F2A#FFFF00C0007D00FF
(1626905044.567419) can1 18FF3000#0000AFFFFFFFFFFF
(1626905044.567991) can1 0C040B2A#FFFFCCFFFFFFFF9D
(1626905044.568575) can1 0CF02FA0#01F8FAFFFFFFFFFF
(1626905044.569563) can1 14FEF121#F7FFFF0FFFFFFFFF
(1626905044.575608) can1 0CF00400#007D8EBB1200F48E
(1626905044.576198) can1 0CF00300#DD0017FFFFFF91FF
(1626905044.576807) can1 14FFA000#FCFFFFFFFFFFFFFF
(1626905044.577399) can1 18FEF200#480000009503FFFF
(1626905044.579395) can1 14FEF131#CFFFFFF300FFFF30
(1626905044.580447) can1 0C00000B#FCFFFAFAFFFFFFFF
(1626905044.583679) can1 18FE5127#1DFFFFFFFFFFFFFF
(1626905044.584263) can1 0C0BA027#FDFFFFFFFFFFFF97
(1626905044.584839) can1 18FEF117#F7FFFFFFFFFFFFFF
(1626905044.585427) can1 18FF2017#0000000000000000
(1626905044.585976) can1 0CF00400#707D8DBB1200F48E
(1626905044.586635) can1 0C0A002A#C1FFFFFFFFFFFFFF
(1626905044.587137) can1 18FEDF00#8C0013FF7DDB02FF
(1626905044.589358) can1 0CF00421#FFFFFFFFFFFFFFFF
(1626905044.595581) can1 0CF00400#707D8DBD1200F48E
(1626905044.597441) can1 18F0233D#FFFFFFFFFF2CFFFF
(1626905044.598026) can1 18FD413D#FFFFFFFFFCFCFCFC
(1626905044.599455) can1 14FDA421#FFFFFFFFFFFFFFFF
(1626905044.600201) can1 10FF2121#32000FC0C0FFFF00
(1626905044.602284) can1 0CF00A01#00004014FFFFFFFF
(1626905044.602881) can1 10F01A01#0000FFFFFFFFFFFF
(1626905044.605608) can1 0CF00400#707D8DBD1200F48E
(1626905044.606213) can1 18FEF000#FFFFFFFFFFFFFFFF
(1626905044.606800) can1 18FF2FA0#DFFFFFFFFAFFFFFF
(1626905044.609513) can1 14FEF031#FFFFFFFFFFFC00FF
(1626905044.610077) can1 18F00E3D#8890FFFFFFFFFFFF
(1626905044.610652) can1 14FF2321#041CE1FFFFFFFFFF
(1626905044.611220) can1 18F00F3D#8890FFFFFFFFFFFF
(1626905044.615639) can1 0CF00400#707D8DBD1200F48E
(1626905044.616210) can1 18FEE000#1CDD4F001CDD4F00
(1626905044.616789) can1 0CF02FA0#01F8FAFFFFFFFFFF
(1626905044.617633) can1 18FEBF0B#00007D7D7D7D7D7D
(1626905044.620151) can1 14FF0121#FFFFFFFFFFFFFCFF
(1626905044.625835) can1 0CF00400#707D8DBF1200F48E
(1626905044.626399) can1 0CF00300#DD0017FFFFFF91FF
(1626905044.626989) can1 18FEF100#C700000000001F30
(1626905044.628263) can1 18FE4F3E#0400FFFFFFFFFFFF
(1626905044.630159) can1 14FF0221#FFFFFFFFFFFFFFFF
(1626905044.633569) can1 18F0010B#0001F0FFFF0DFFFF
(1626905044.634147) can1 0C0BA027#FDFFFFFFFFFFFFA8
(1626905044.635612) can1 0CF00400#707D8DBF1200F48E
(1626905044.636195) can1 18FEDF00#8C0013FF7DD702FF
(1626905044.638881) can1 18FDC40B#FF00FFFFFFFFFFFF
(1626905044.645554) can1 0CF00400#607D8DC11200F48E
(1626905044.647848) can1 18F0233D#FFFFFFFFFF2CFFFF
(1626905044.649432) can1 14F00031#CFFFFFFFFFFFFFFF
(1626905044.650207) can1 10FF2121#32000FC0C0FFFF00
(1626905044.652299) can1 0CF00A01#00003814FFFFFFFF
(1626905044.652887) can1 10F01A01#0000FFFFFFFFFFFF
(1626905044.653474) can1 10FCFD01#FFFFFFFF0324FFFF
(1626905044.654046) can1 18FD9401#C864FFFF2E0D3E02
(1626905044.654635) can1 18FDA101#2D03FFFFFFFF00FF
(1626905044.655235) can1 10FDA301#FFFFFFFFFFFFFFFF
(1626905044.655824) can1 18FDAA01#FFFFFFFFFFFFFF31
(1626905044.656379) can1 0CF00400#607D8DC11200F48E
(1626905044.656963) can1 18FDD001#FFFFFF0031FFFFFF
(1626905044.657542) can1 18F0000F#007DFFFF0F7DFFFF
(1626905044.658127) can1 18FF2FA0#DFFFFFFFFAFFFFFF
(1626905044.658711) can1 1CFE9201#FF0071FFFFFFFFFF
(1626905044.659270) can1 18FEDB01#162416241624FFFF
(1626905044.659843) can1 14F00131#FFFFFFFF00FFFFFF
(1626905044.660407) can1 18F00E3D#8890FFFFFFFFFFFF
(1626905044.660987) can1 18F00F3D#8890FFFFFFFFFFFF
(1626905044.661567) can1 18FD8C3D#01000500FFFFFFFF
(1626905044.662155) can1 18FDB23D#FFFF27280000FFFF
(1626905044.662751) can1 18FDB300#FFFFB626FFFFFFFF
(1626905044.663331) can1 18FDB400#DF28DF28FFFFFFFF
(1626905044.665683) can1 0CF00400#607D8DC31200F48E
(1626905044.666263) can1 14FF3131#4030030000FFFFF0
(1626905044.666839) can1 10FE6F2A#FFFF00C0007D00FF
(1626905044.667426) can1 18FF3000#0000AFFFFFFFFFFF
(1626905044.668007) can1 0CF02FA0#01F8FAFFFFFFFFFF
(1626905044.669447) can1 14FEF121#F7FFFF0FFFFFFFFF
(1626905044.675617) can1 0CF00400#607D8DC31200F48E
(1626905044.676206) can1 0CF00300#DD0017FFFFFF91FF
(1626905044.676809) can1 14FFA000#FCFFFFFFFFFFFFFF
(1626905044.677400) can1 18FEF200#4C0000009503FFFF
(1626905044.679430) can1 14FEF131#CFFFFFF300FFFF30
(1626905044.680512) can1 0C00000B#FCFFFAFAFFFFFFFF
(1626905044.683672) can1 0C0BA027#FDFFFFFFFFFFFFB9
(1626905044.684492) can1 18FEF117#F7FFFFFFFFFFFFFF
(1626905044.685080) can1 18FF2017#0000000000000000
(1626905044.685631) can1 0CF00400#507D8DC61200F48E
(1626905044.686215) can1 18FEDF00#8C0013FF7DD702FF
(1626905044.686807) can1 0C0A002A#C1FFFFFFFFFFFFFF
(1626905044.689423) can1 0CF00421#FFFFFFFFFFFFFFFF
(1626905044.695601) can1 0CF00400#407D8DCC1200F48E
(1626905044.697440) can1 18F0233D#FFFFFFFFFF2CFFFF
(1626905044.698028) can1 18FD413D#FFFFFFFFFCFCFCFC
(1626905044.699503) can1 14FDA421#FFFFFFFFFFFFFFFF
(1626905044.700188) can1 10FF2121#32000FC0C0FFFF00
(1626905044.701766) can1 0C00100B#FCFFFA00FFFFFFFF
(1626905044.702338) can1 0CF00A01#00003814FFFFFFFF
(1626905044.702934) can1 10F01A01#0000FFFFFFFFFFFF
(1626905044.705616) can1 0CF00400#407D8DCD1200F48D
(1626905044.706220) can1 18FEF000#FFFFFFFFFFFFFFFF
(1626905044.706808) can1 18FF2FA0#DFFFFFFFFAFFFFFF
(1626905044.707378) can1 0C000F0B#FCFFFA00FFFFFFFF
(1626905044.709421) can1 14FEF031#FFFFFFFFFFFC00FF
(1626905044.709986) can1 18F00E3D#8890FFFFFFFFFFFF
(1626905044.710563) can1 14FF2321#041CE1FFFFFFFFFF
(1626905044.711131) can1 18F00F3D#8890FFFFFFFFFFFF
(1626905044.712375) can1 0C00290B#FCFFFA00FFFFFFFF
(1626905044.715745) can1 0CF00400#407D8DCC1200F48E
(1626905044.716324) can1 0CF02FA0#01F8FAFFFFFFFFFF
(1626905044.716879) can1 18FEE000#1CDD4F001CDD4F00
(1626905044.717486) can1 18FECA00#03FF00000000FFFF
(1626905044.718062) can1 18FEBF0B#00007D7D7D7D7D7D
(1626905044.719560) can1 18FF2421#CDF0FCFFFFFFFFFF
(1626905044.720252) can1 14FF0121#FFFFFFFFFFFFFCFF
(1626905044.725940) can1 0CF00400#507D8DC61200F48E
(1626905044.726537) can1 0CF00300#DD0017FFFFFF91FF
(1626905044.727127) can1 18FEF100#C700000000001F30
(1626905044.727727) can1 18FDE000#FFFFFFFF1025FFFF
(1626905044.728327) can1 18FE4F3E#0400FFFFFFFFFFFF
(1626905044.730155) can1 14FF0221#FFFFFFFFFFFFFFFF
(1626905044.733632) can1 18F0010B#0001F0FFFF0DFFFF
(1626905044.734211) can1 0C0BA027#FDFFFFFFFFFFFFCA
(1626905044.735609) can1 0CF00400#607D8DC31200F48E
(1626905044.736196) can1 18FEDF00#8C0013FF7DD602FF
(1626905044.736787) can1 18FEEF00#9AFFFF66FFFFFFFA
(1626905044.738945) can1 18FDC40B#FF00FFFFFFFFFFFF
(1626905044.745551) can1 0CF00400#607D8DC31200F48E
(1626905044.746148) can1 18FCDC00#E1FEFEFFFFFFFFFF
(1626905044.747845) can1 18F0233D#FFFFFFFFFF2CFFFF
(1626905044.749428) can1 14F00031#CFFFFFFFFFFFFFFF
(1626905044.750188) can1 10FF2121#32000FC0C0FFFF00
(1626905044.752292) can1 0CF00A01#00003814FFFFFFFF
(1626905044.752880) can1 10F01A01#0000FFFFFFFFFFFF
(1626905044.753468) can1 10FCFD01#FFFFFFFF0324FFFF
(1626905044.754036) can1 18FD9401#4865FFFF480D3E02
(1626905044.754638) can1 18FDA101#2D03FFFFFFFF00FF
(1626905044.755230) can1 10FDA301#FFFFFFFFFFFFFFFF
(1626905044.755818) can1 18FDAA01#FFFFFFFFFFFFFF31
(1626905044.756374) can1 0CF00400#507D8DC51200F48E
(1626905044.756957) can1 18FDD001#FFFFFF0031FFFFFF
(1626905044.757536) can1 18F0000F#007DFFFF0F7DFFFF
(1626905044.758121) can1 18FF2FA0#DFFFFFFFFAFFFFFF
(1626905044.758706) can1 1CFE9201#FF0071FFFFFFFFFF
(1626905044.759265) can1 18FEDB01#162416241624FFFF
(1626905044.759837) can1 14F00131#FFFFFFFF00FFFFFF
(1626905044.760401) can1 18F00E3D#8890FFFFFFFFFFFF
(1626905044.760981) can1 18F00F3D#8890FFFFFFFFFFFF
(1626905044.761562) can1 18FD8C3D#01000500FFFFFFFF
(1626905044.762159) can1 18FDB23D#FFFF27280000FFFF
(1626905044.762741) can1 18FDB300#FFFFB626FFFFFFFF
(1626905044.763320) can1 18FDB400#DF28DF28FFFFFFFF
(1626905044.765675) can1 0CF00400#507D8DC61200F48E
(1626905044.766255) can1 14FF3131#4030030000FFFFF0
(1626905044.766831) can1 10FE6F2A#FFFF00C0007D00FF
(1626905044.767419) can1 18FF3000#0000AFFFFFFFFFFF
(1626905044.767986) can1 0C040B2A#FFFFCCFFFFFFFFAE
(1626905044.768571) can1 0CF02FA0#01F8FAFFFFFFFFFF
(1626905044.769556) can1 14FEF121#F7FFFF0FFFFFFFFF
(1626905044.775621) can1 0CF00400#507D8DC51200F48E
(1626905044.776200) can1 0CF00300#DD0017FFFFFF91FF
(1626905044.776807) can1 14FFA000#FCFFFFFFFFFFFFFF
(1626905044.777402) can1 18FEF200#480000009503FFFF
(1626905044.777995) can1 18FEF500#C8FFFF6B2547FFFF
(1626905044.779618) can1 14FEF131#CFFFFFF300FFFF30
(1626905044.780583) can1 0C00000B#FCFFFAFAFFFFFFFF
(1626905044.783676) can1 0C0BA027#FDFFFFFFFFFFFFEB
(1626905044.785281) can1 18FEF117#F7FFFFFFFFFFFFFF
(1626905044.785832) can1 0CF00400#607D8DC31200F48E
(1626905044.786420) can1 18FF2017#0000000000000000
(1626905044.787005) can1 0C0A002A#C1FFFFFFFFFFFFFF
(1626905044.787576) can1 18FEDF00#8C0013FF7DD602FF
(1626905044.789343) can1 0CF00421#FFFFFFFFFFFFFFFF
(1626905044.795589) can1 0CF00400#607D8DC31200F48E
(1626905044.796165) can1 18FEEE00#4E436026FFFF47FF
(1626905044.797437) can1 18F0233D#FFFFFFFFFF2CFFFF
(1626905044.798025) can1 18FD413D#FFFFFFFFFCFCFCFC
(1626905044.799491) can1 14FDA421#FFFFFFFFFFFFFFFF
(1626905044.800201) can1 10FF2121#32000FC0C0FFFF00
(1626905044.802301) can1 0CF00A01#00003814FFFFFFFF
(1626905044.802898) can1 10F01A01#0000FFFFFFFFFFFF
(1626905044.805633) can1 0CF00400#607D8DC31200F48E
(1626905044.806241) can1 18FEF000#FFFFFFFFFFFFFFFF
(1626905044.806824) can1 18FF2FA0#DFFFFFFFFAFFFFFF
(1626905044.807402) can1 18FEA400#FFFFFFFF157E2022
(1626905044.809453) can1 14FEF031#FFFFFFFFFFFC00FF
(1626905044.810018) can1 18F00E3D#8890FFFFFFFFFFFF
(1626905044.810595) can1 14FF2321#041CE1FFFFFFFFFF
(1626905044.811162) can1 18F00F3D#8890FFFFFFFFFFFF
(1626905044.815671) can1 0CF00400#507D8DC51200F48E
(1626905044.816257) can1 14FD3E00#B026FFB026FFFFFF
(1626905044.816838) can1 0CF02FA0#01F8FAFFFFFFFFFF
(1626905044.817393) can1 18FEE000#1CDD4F001CDD4F00
(1626905044.817970) can1 18FEBF0B#00007D7D7D7D7D7D
(1626905044.820178) can1 14FF0121#FFFFFFFFFFFFFCFF
(1626905044.825821) can1 0CF00400#507D8DC61200F48E
(1626905044.826408) can1 0CF00300#DD0017FFFFFF91FF
(1626905044.827001) can1 18FEF100#C700000000001F30
(1626905044.827635) can1 18FEBD00#00F00000FFFFFFFF
(1626905044.828390) can1 18FE4F3E#0400FFFFFFFFFFFF
(1626905044.830206) can1 14FF0221#FFFFFFFFFFFFFFFF
(1626905044.833660) can1 18FE5127#1DFFFFFFFFFFFFFF
(1626905044.834224) can1 18F0010B#0001F0FFFF0DFFFF
(1626905044.834818) can1 0C0BA027#FDFFFFFFFFFFFFFC
(1626905044.835635) can1 0CF00400#507D8DC91200F48E
(1626905044.836223) can1 18FEDF00#8C0013FF7DDD02FF
(1626905044.836818) can1 18FF7400#D500FFFFFFFCFFFF
(1626905044.839012) can1 18FDC40B#FF00FFFFFFFFFFFF
(1626905044.845554) can1 0CF00400#507D8DC91200F48E
(1626905044.846147) can1 18FD7C00#F8F3C13030FFE3FF
(1626905044.847852) can1 18F0233D#FFFFFFFFFF2CFFFF
(1626905044.849426) can1 14F00031#CFFFFFFFFFFFFFFF
(1626905044.850207) can1 10FF2121#32000FC0C0FFFF00
(1626905044.851120) can1 18FF2221#0300C30701F3FFFF
(1626905044.852307) can1 0CF00A01#00004014FFFFFFFF
(1626905044.852900) can1 10F01A01#0000FFFFFFFFFFFF
(1626905044.853491) can1 10FCFD01#FFFFFFFF0624FFFF
(1626905044.854087) can1 18FD9401#4865FFFF610D3D02
(1626905044.854675) can1 18FDA101#2D03FFFFFFFF00FF
(1626905044.855272) can1 10FDA301#FFFFFFFFFFFFFFFF
(1626905044.855863) can1 18FDAA01#FFFFFFFFFFFFFF31
(1626905044.856415) can1 0CF00400#507D8DC61200F48E
(1626905044.856999) can1 18FDD001#FFFFFF0031FFFFFF
(1626905044.857579) can1 18F0000F#007DFFFF0F7DFFFF
(1626905044.858163) can1 18FF2FA0#DFFFFFFFFAFFFFFF
(1626905044.858727) can1 18FEF600#FF004731FFDC28FF
(1626905044.859303) can1 1CFE9201#FF0071FFFFFFFFFF
(1626905044.859875) can1 14F00131#FFFFFFFF00FFFFFF
(1626905044.860432) can1 18FEDB01#162416241624FFFF
(1626905044.861016) can1 18FEE400#007FFFFC007FFFFF
(1626905044.861579) can1 18F00E3D#8890FFFFFFFFFFFF
(1626905044.862159) can1 18F00F3D#8890FFFFFFFFFFFF
(1626905044.862747) can1 18FD8C3D#01000500FFFFFFFF
(1626905044.863324) can1 18FDB23D#FFFF27280000FFFF
(1626905044.863915) can1 18FDB300#FFFFB626FFFFFFFF
(1626905044.864500) can1 18FDB400#DF28DF28FFFFFFFF
(1626905044.865716) can1 0CF00400#507D8DC61200F48E
(1626905044.866296) can1 14FF3131#4030030000FFFFF0
(1626905044.866899) can1 10FE6F2A#FFFF00C0007D00FF
(1626905044.867466) can1 18FF3000#0000AFFFFFFFFFFF
(1626905044.868042) can1 0CF02FA0#01F8FAFFFFFFFFFF
(1626905044.869385) can1 14FEF121#F7FFFF0FFFFFFFFF
(1626905044.875604) can1 0CF00400#507D8DC61200F48E
(1626905044.876193) can1 0CF00300#DD0017FFFFFF91FF
(1626905044.876793) can1 14FFA000#FCFFFFFFFFFFFFFF
(1626905044.877389) can1 18FEF200#480000009503FFFF
(1626905044.879497) can1 14FEF131#CFFFFFF300FFFF30
(1626905044.880661) can1 0C00000B#FCFFFAFAFFFFFFFF
(1626905044.883660) can1 0C0BA027#FDFFFFFFFFFFFF0D
(1626905044.884709) can1 18FEF117#F7FFFFFFFFFFFFFF
(1626905044.885296) can1 18FF2017#0000000000000000
(1626905044.885861) can1 0CF00400#407D8DCC1200F48E
(1626905044.886449) can1 18FEDF00#8C0013FF7DDD02FF
(1626905044.887037) can1 0C0A002A#C1FFFFFFFFFFFFFF
(1626905044.887606) can1 18FE5600#AB41FFFF1F1F00FF
(1626905044.889390) can1 0CF00421#FFFFFFFFFFFFFFFF
(1626905044.895580) can1 0CF00400#307D8DCF1200F48D
(1626905044.896170) can1 18FEC100#B997CC07B997CC07
(1626905044.897454) can1 18F0233D#FFFFFFFFFF2CFFFF
(1626905044.898030) can1 18FD413D#FFFFFFFFFCFCFCFC
(1626905044.899871) can1 14FDA421#FFFFFFFFFFFFFFFF
(1626905044.900561) can1 10FF2121#32000FC0C0FFFF00
(1626905044.901894) can1 0C00100B#FCFFFA00FFFFFFFF
(1626905044.902470) can1 0CF00A01#00003814FFFFFFFF
(1626905044.903067) can1 10F01A01#0000FFFFFFFFFFFF
(1626905044.905631) can1 0CF00400#207D8DD31200F48D
(1626905044.906233) can1 18FEF000#FFFFFFFFFFFFFFFF
(1626905044.906823) can1 18FF2FA0#DFFFFFFFFAFFFFFF
(1626905044.907395) can1 0C000F0B#FCFFFA00FFFFFFFF
(1626905044.907970) can1 18FEF700#FFFFFFFF16011601
(1626905044.909542) can1 14FEF031#FFFFFFFFFFFC00FF
(1626905044.910106) can1 18F00E3D#8890FFFFFFFFFFFF
(1626905044.910683) can1 14FF2321#041CE1FFFFFFFFFF
(1626905044.911250) can1 18F00F3D#8890FFFFFFFFFFFF
(1626905044.912495) can1 0C00290B#FCFFFA00FFFFFFFF
(1626905044.915684) can1 0CF00400#307D8DCF1200F48D
(1626905044.916251) can1 18FF1919#01030A00FFFFFFFF
(1626905044.916831) can1 0CF02FA0#01F8FAFFFFFFFFFF
(1626905044.917406) can1 18FEE000#1CDD4F001CDD4F00
(1626905044.917967) can1 18FEBF0B#00007D7D7D7D7D7D
(1626905044.920224) can1 14FF0121#FFFFFFFFFFFFFCFF
(1626905044.921292) can1 18FF1B19#FFFCFFFFFFFFFFFF
(1626905044.925812) can1 0CF00400#507D8DC91200F48E
(1626905044.926403) can1 0CF00300#DD0017FFFFFF91FF
(1626905044.926989) can1 18FEF100#C700000000001F30
(1626905044.928456) can1 18FE4F3E#0400FFFFFFFFFFFF
(1626905044.930188) can1 14FF0221#FFFFFFFFFFFFFFFF
(1626905044.933632) can1 0C0BA027#FDFFFFFFFFFFFF1E
(1626905044.934208) can1 18F0010B#0001F0FFFF0DFFFF
(1626905044.935622) can1 0CF00400#607D8DC11200F48E
(1626905044.936200) can1 18FEDF00#8C0013FF7DDB02FF
(1626905044.939080) can1 18FDC40B#FF00FFFFFFFFFFFF
(1626905044.945004) can1 18FECA0B#00FF00000000FFFF
(1626905044.945590) can1 0CF00400#607D8DC11200F48E
(1626905044.947862) can1 18F0233D#FFFFFFFFFF2CFFFF
(1626905044.949427) can1 14F00031#CFFFFFFFFFFFFFFF
(1626905044.950186) can1 10FF2121#32000FC0C0FFFF00
(1626905044.952298) can1 0CF00A01#00003814FFFFFFFF
(1626905044.952886) can1 10F01A01#0000FFFFFFFFFFFF
(1626905044.953482) can1 18FECA01#03FF00000000FFFF
(1626905044.954105) can1 10FCFD01#FFFFFFFF0624FFFF
(1626905044.954674) can1 18FD9401#4865FFFF7A0D3B02
(1626905044.955253) can1 18FDA101#2D03FFFFFFFF00FF
(1626905044.955850) can1 10FDA301#FFFFFFFFFFFFFFFF
(1626905044.956434) can1 18FF2FA0#DFFFFFFFFAFFFFFF
(1626905044.956985) can1 0CF00400#607D8DC31200F48E
(1626905044.957562) can1 18FDAA01#FFFFFFFFFFFFFF31
(1626905044.958141) can1 18F0000F#007DFFFF0F7DFFFF
(1626905044.958730) can1 18FDD001#FFFFFF0031FFFFFF
(1626905044.959313) can1 1CFE9201#FF0071FFFFFFFFFF
(1626905044.959885) can1 14F00131#FFFFFFFF00FFFFFF
(1626905044.960442) can1 18FEDB01#162416241624FFFF
(1626905044.961026) can1 18FD6501#D002FFFFFFFFFFFF
(1626905044.961610) can1 18FD6601#FF4CFFFFFFFFFFFF
(1626905044.962197) can1 18FE6901#0426D126FFFF6425
(1626905044.962803) can1 18FE9701#FFFFFFFFFFFFFFFF
(1626905044.963393) can1 18FE9801#6027FFFFFFFFFFFF
(1626905044.963990) can1 18FE9901#007DFFFFFFFFFFFF
(1626905044.964597) can1 18FE9A01#201DFFFFFFFFFFFF
(1626905044.965176) can1 18FEDD01#FF8C07FFFFFFFFFF
(1626905044.965749) can1 18F00E3D#8890FFFFFFFFFFFF
(1626905044.966298) can1 0CF00400#607D8DC31200F48E
(1626905044.966878) can1 10FE6F2A#FFFF00C0007D00FF
(1626905044.967450) can1 14FF3131#4030030000FFFFF0
(1626905044.968047) can1 0C040B2A#FFFFCCFFFFFFFFBF
(1626905044.968600) can1 18F00F3D#8890FFFFFFFFFFFF
(1626905044.969179) can1 0CF02FA0#01F8FAFFFFFFFFFF
(1626905044.969747) can1 14FEF121#F7FFFF0FFFFFFFFF
(1626905044.970322) can1 18FECA3D#03FF00000000FFFF
(1626905044.970919) can1 18FF3000#0000AFFFFFFFFFFF
(1626905044.971478) can1 18FFAA01#00001505997F955D
(1626905044.972079) can1 18FD8C3D#01000500FFFFFFFF
(1626905044.972642) can1 18FFAB01#68170E9E7D006419
(1626905044.973222) can1 18FDB23D#FFFF27280000FFFF
(1626905044.973814) can1 18FDB300#FFFFB626FFFFFFFF
(1626905044.974386) can1 18FFAC01#0E8216191200F0FF
(1626905044.974974) can1 18FDB400#DF28DF28FFFFFFFF
(1626905044.975569) can1 18FFAD01#A200FFFFFFFFFFFF
(1626905044.976120) can1 0CF00400#607D8DC31200F48E
(1626905044.976703) can1 18FFA63D#00FF00000000FFFF
(1626905044.977279) can1 0CF00300#DD0017FFFFFF91FF
(1626905044.977864) can1 18FFAE01#00FF00000000FFFF
(1626905044.978456) can1 14FFA000#FCFFFFFFFFFFFFFF
(1626905044.979056) can1 18FEF200#480000009503FFFF
(1626905044.979645) can1 14FEF131#CFFFFFF300FFFF30
(1626905044.980705) can1 0C00000B#FCFFFAFAFFFFFFFF
(1626905044.983686) can1 0C0BA027#FDFFFFFFFFFFFF2F
(1626905044.984572) can1 18EA0017#E9FE00
(1626905044.985148) can1 18FD0517#03033FFFFFFFFFFF
(1626905044.985705) can1 0CF00400#607D8DC11200F48E
(1626905044.986288) can1 18FD0417#C0FFFFFFFFFFFFFF
