(1626967581.291418) can1 10FF2121#32000FC0C0FFFF00
(1626967581.291998) can1 18FEDF00#7D0013FF7D0000FF
(1626967581.293615) can1 18FF2421#BFF0FCFFFFFFFFFF
(1626967581.299918) can1 0CF00400#017D7D000000F07D
(1626967581.301742) can1 18F0233D#FFFFFFFFFF0CFFFF
(1626967581.302328) can1 18FD413D#FFFFFFFFFCFCFCFC
(1626967581.306688) can1 0CF00A01#00000000FFFFFFFF
(1626967581.307280) can1 10F01A01#0000FFFFFFFFFFFF
(1626967581.309873) can1 0CF00400#017D7D000000F07D
(1626967581.310476) can1 18FEF000#FFFFFFFFFFFFFFFF
(1626967581.311052) can1 0C00100B#FCFFFA00FFFFFFFF
(1626967581.311623) can1 18FF2FA0#DB007D03FAFFFFFF
(1626967581.314260) can1 18F00E3D#8890FFFFFFFFFFFF
(1626967581.314835) can1 18F00F3D#8890FFFFFFFFFFFF
(1626967581.316221) can1 0C000F0B#FCFFFA00FFFFFFFF
(1626967581.319865) can1 0CF00400#017D7D000000F07D
(1626967581.320447) can1 0CF02FA0#01F9FAFFFFFFFFFF
(1626967581.321000) can1 18FEE000#1CDD4F001CDD4F00
(1626967581.321568) can1 0C00290B#FCFFFA00FFFFFFFF
(1626967581.323436) can1 14F00031#CFFFFFFFFFFFFFFF
(1626967581.326855) can1 18FEBF0B#00007D7D7D7D7D7D
(1626967581.330068) can1 0CF00400#017D7D000000F07D
(1626967581.330652) can1 0CF00300#DD0000FFFFFF00FF
(1626967581.331244) can1 18FEF100#C700000000001F30
(1626967581.333460) can1 14F00131#FFFFFFFF00FFFFFF
(1626967581.335208) can1 0C0BA027#FDFFFFFFFFFFFF31
(1626967581.337488) can1 18FE4F3E#0400FFFFFFFFFFFF
(1626967581.339888) can1 0CF00400#017D7D000000F07D
(1626967581.340459) can1 10FF2121#32000FC0C0FFFF00
(1626967581.341064) can1 18FEDF00#7D0013FF7D0000FF
(1626967581.342780) can1 18F0010B#0001F0FFFF0DFFFF
(1626967581.343670) can1 14FEF121#F7FFFF0FFFFFFFFF
(1626967581.346195) can1 14FF3131#4030030000FFFFF0
(1626967581.348096) can1 18FDC40B#FF00FFFFFFFFFFFF
(1626967581.349882) can1 0CF00400#017D7D000000F07D
(1626967581.350458) can1 14FF2321#041DE1FFFFFFFFFF
(1626967581.351762) can1 18FEF117#F7FFFFFFFFFFFFFF
(1626967581.352334) can1 18F0233D#FFFFFFFFFF0CFFFF
(1626967581.352922) can1 18FF2017#0000000000000000
(1626967581.353494) can1 14FEF131#CFFFFFF300FFFF30
(1626967581.356703) can1 0CF00A01#00000000FFFFFFFF
(1626967581.357290) can1 10F01A01#0000FFFFFFFFFFFF
(1626967581.357884) can1 10FCFD01#FFFFFFFF0000FFFF
(1626967581.358483) can1 18FD9401#9407FFFF0000C503
(1626967581.359063) can1 18FDA101#F302FFFFFFFF00FF
(1626967581.359646) can1 14FF0121#FFFFFFFFFFFFFCFF
(1626967581.360233) can1 10FDA301#FFFFFFFFFFFFFFFF
(1626967581.360809) can1 0CF00400#017D7D000000F07D
(1626967581.361384) can1 18FDAA01#FFFFFFFFFFFFFF31
(1626967581.361963) can1 18F0000F#007DFFFF0F7DFFFF
(1626967581.362546) can1 18FDD001#FFFFFF0031FFFFFF
(1626967581.363119) can1 18FF2FA0#DB007D03FAFFFFFF
(1626967581.363699) can1 0CF00421#FFFFFFFFFFFFFFFF
(1626967581.364277) can1 1CFE9201#FF0071FFFFFFFFFF
(1626967581.364843) can1 18FEDB01#E900E900E900FFFF
(1626967581.365415) can1 18F00E3D#8890FFFFFFFFFFFF
(1626967581.365995) can1 18F00F3D#8890FFFFFFFFFFFF
(1626967581.366623) can1 18FD8C3D#00000300FFFFFFFF
(1626967581.367207) can1 18FDB23D#FFFF83250000FFFF
(1626967581.367799) can1 18FDB300#FFFF8325FFFFFFFF
(1626967581.368380) can1 18FDB400#83258325FFFFFFFF
(1626967581.369931) can1 0CF00400#017D7D000000F07D
(1626967581.370519) can1 14FF0221#FFFFFFFFFFFFFFFF
(1626967581.371091) can1 10FE6F2A#FFFF00C0007D00FF
(1626967581.371686) can1 18FF3000#0000FFFFFFFFFFFF
(1626967581.372270) can1 0CF02FA0#01F9FAFFFFFFFFFF
(1626967581.373671) can1 14FDA421#FFFFFFFFFFFFFFFF
(1626967581.379795) can1 0CF00400#017D7D000000F07D
(1626967581.380379) can1 0CF00300#DD0000FFFFFF00FF
(1626967581.380984) can1 14FFA000#FCFFFFFFFFFFFFFF
(1626967581.381575) can1 18FEF200#000000009503FFFF
(1626967581.383538) can1 14FEF031#FFFFFFFFFFFC00FF
(1626967581.385220) can1 0C0BA027#FDFFFFFFFFFFFF42
(1626967581.389733) can1 0C00000B#FCFFFAFAFFFFFFFF
(1626967581.390305) can1 0CF00400#017D7D000000F07D
(1626967581.390893) can1 0C0A002A#C1FFFFFFFFFFFFFF
(1626967581.391465) can1 10FF2121#32000FC0C0FFFF00
(1626967581.392051) can1 18FEDF00#7D0013FF7D0000FF
(1626967581.399909) can1 0CF00400#017D7D000000F07D
(1626967581.401737) can1 18F0233D#FFFFFFFFFF0CFFFF
(1626967581.402325) can1 18FD413D#FFFFFFFFFCFCFCFC
(1626967581.406736) can1 0CF00A01#00000000FFFFFFFF
(1626967581.407283) can1 10F01A01#0000FFFFFFFFFFFF
(1626967581.409860) can1 0CF00400#017D7D000000F07D
(1626967581.410454) can1 18FEF000#FFFFFFFFFFFFFFFF
(1626967581.411034) can1 18FF2FA0#DB017D03FAFFFFFF
(1626967581.414257) can1 18F00E3D#8890FFFFFFFFFFFF
(1626967581.414836) can1 18F00F3D#8890FFFFFFFFFFFF
(1626967581.419894) can1 0CF00400#017D7D000000F07D
(1626967581.420466) can1 0CF02FA0#01F9FAFFFFFFFFFF
(1626967581.421021) can1 18FEE000#1CDD4F001CDD4F00
(1626967581.421629) can1 18FECA00#03FF00000000FFFF
(1626967581.423478) can1 14F00031#CFFFFFFFFFFFFFFF
(1626967581.426911) can1 18FEBF0B#00007D7D7D7D7D7D
(1626967581.430194) can1 0CF00400#017D7D000000F07D
(1626967581.430778) can1 0CF00300#DD0000FFFFFF00FF
(1626967581.431370) can1 18FEF100#C700000000001F30
(1626967581.431972) can1 18FDE000#FFFFFFFF1025FFFF
(1626967581.433439) can1 14F00131#FFFFFFFF00FFFFFF
(1626967581.435215) can1 0C0BA027#FDFFFFFFFFFFFF53
(1626967581.437548) can1 18FE4F3E#0400FFFFFFFFFFFF
(1626967581.439877) can1 0CF00400#017D7D000000F07D
(1626967581.440447) can1 10FF2121#32000FC0C0FFFF00
(1626967581.441031) can1 18FEDF00#7D0013FF7D0000FF
(1626967581.441627) can1 18FEEF00#19FFFF00FFFFFFFA
(1626967581.442843) can1 18F0010B#0001F0FFFF0DFFFF
(1626967581.443820) can1 14FEF121#F7FFFF0FFFFFFFFF
(1626967581.446260) can1 14FF3131#4030030000FFFFF0
(1626967581.448164) can1 18FDC40B#FF00FFFFFFFFFFFF
(1626967581.449896) can1 0CF00400#017D7D000000F07D
(1626967581.450496) can1 18FCDC00#E1FEFEFFFFFFFFFF
(1626967581.451072) can1 14FF2321#041DE1FFFFFFFFFF
(1626967581.451648) can1 18FEF117#F7FFFFFFFFFFFFFF
(1626967581.452224) can1 18F0233D#FFFFFFFFFF0CFFFF
(1626967581.452808) can1 18FF2017#0000000000000000
(1626967581.453648) can1 14FEF131#CFFFFFF300FFFF30
(1626967581.456696) can1 0CF00A01#00000000FFFFFFFF
(1626967581.457284) can1 10F01A01#0000FFFFFFFFFFFF
(1626967581.457880) can1 10FCFD01#FFFFFFFF0000FFFF
(1626967581.458489) can1 18FD9401#9407FFFF0000C503
(1626967581.459066) can1 18FDA101#F302FFFFFFFF00FF
(1626967581.459672) can1 10FDA301#FFFFFFFFFFFFFFFF
(1626967581.460249) can1 18FDAA01#FFFFFFFFFFFFFF31
(1626967581.460827) can1 0CF00400#017D7D000000F07D
(1626967581.461409) can1 14FF0121#FFFFFFFFFFFFFCFF
(1626967581.461989) can1 18F0000F#007DFFFF0F7DFFFF
(1626967581.462573) can1 18FDD001#FFFFFF0031FFFFFF
(1626967581.463157) can1 18FF2FA0#DBFD7C03FAFFFFFF
(1626967581.463734) can1 0CF00421#FFFFFFFFFFFFFFFF
(1626967581.464314) can1 1CFE9201#FF0071FFFFFFFFFF
(1626967581.464878) can1 18FEDB01#E900E900E900FFFF
(1626967581.465450) can1 18F00E3D#8890FFFFFFFFFFFF
(1626967581.466030) can1 18F00F3D#8890FFFFFFFFFFFF
(1626967581.466635) can1 18FD8C3D#00000300FFFFFFFF
(1626967581.467205) can1 18FDB23D#FFFF83250000FFFF
(1626967581.467797) can1 18FDB300#FFFF8325FFFFFFFF
(1626967581.468374) can1 18FDB400#83258325FFFFFFFF
(1626967581.469954) can1 0CF00400#017D7D000000F07D
(1626967581.470526) can1 10FE6F2A#FFFF00C0007D00FF
(1626967581.471115) can1 14FF0221#FFFFFFFFFFFFFFFF
(1626967581.471687) can1 0C040B2A#FFFFCCFFFFFFFFF4
(1626967581.472271) can1 0CF02FA0#01F9FAFFFFFFFFFF
(1626967581.472863) can1 18FF3000#0000FFFFFFFFFFFF
(1626967581.473747) can1 14FDA421#FFFFFFFFFFFFFFFF
(1626967581.479807) can1 0CF00400#017D7D000000F07D
(1626967581.480391) can1 0CF00300#DD0000FFFFFF00FF
(1626967581.480995) can1 14FFA000#FCFFFFFFFFFFFFFF
(1626967581.481587) can1 18FEF200#000000009503FFFF
(1626967581.482175) can1 18FEF500#C9FFFF0E2544FFFF
(1626967581.483763) can1 14FEF031#FFFFFFFFFFFC00FF
(1626967581.485215) can1 18FE5127#1DFFFFFFFFFFFFFF
(1626967581.485799) can1 0C0BA027#FDFFFFFFFFFFFF64
(1626967581.489804) can1 0C00000B#FCFFFAFAFFFFFFFF
(1626967581.490374) can1 0CF00400#017D7D000000F07D
(1626967581.490961) can1 0C0A002A#C1FFFFFFFFFFFFFF
(1626967581.491533) can1 10FF2121#32000FC0C0FFFF00
(1626967581.492120) can1 18FEDF00#7D0013FF7D0000FF
(1626967581.499915) can1 0CF00400#017D7D000000F07D
(1626967581.500496) can1 18FEEE00#40402025FFFF44FF
(1626967581.501745) can1 18F0233D#FFFFFFFFFF0CFFFF
(1626967581.502332) can1 18FD413D#FFFFFFFFFCFCFCFC
(1626967581.506705) can1 0CF00A01#00000000FFFFFFFF
(1626967581.507283) can1 10F01A01#0000FFFFFFFFFFFF
(1626967581.509864) can1 0CF00400#017D7D000000F07D
(1626967581.510461) can1 18FEF000#FFFFFFFFFFFFFFFF
(1626967581.511038) can1 0C00100B#FCFFFA00FFFFFFFF
(1626967581.511617) can1 18FEA400#FFFFFFFF3E7D2022
(1626967581.512198) can1 18FF2FA0#DBFE7C03FAFFFFFF
(1626967581.514254) can1 18F00E3D#8890FFFFFFFFFFFF
(1626967581.514834) can1 18F00F3D#8890FFFFFFFFFFFF
(1626967581.516358) can1 0C000F0B#FCFFFA00FFFFFFFF
(1626967581.519859) can1 0CF00400#017D7D000000F07D
(1626967581.520434) can1 0CF02FA0#01F9FAFFFFFFFFFF
(1626967581.521009) can1 14FD3E00#7025FF7C25FFFFFF
(1626967581.521582) can1 18FEE000#1CDD4F001CDD4F00
(1626967581.522150) can1 0C00290B#FCFFFA00FFFFFFFF
(1626967581.523522) can1 14F00031#CFFFFFFFFFFFFFFF
(1626967581.526980) can1 18FEBF0B#00007D7D7D7D7D7D
(1626967581.530046) can1 0CF00400#017D7D000000F07D
(1626967581.530635) can1 0CF00300#DD0000FFFFFF00FF
(1626967581.531235) can1 18FEF100#C700000000001F30
(1626967581.531857) can1 18FEBD00#00F00000FFFFFFFF
(1626967581.533551) can1 14F00131#FFFFFFFF00FFFFFF
(1626967581.535199) can1 0C0BA027#FDFFFFFFFFFFFF75
(1626967581.537616) can1 18FE4F3E#0400FFFFFFFFFFFF
(1626967581.539872) can1 0CF00400#017D7D000000F07D
(1626967581.540443) can1 10FF2121#32000FC0C0FFFF00
(1626967581.541045) can1 18FEDF00#7D0013FF7D0000FF
(1626967581.541629) can1 18FF7400#D400FFFFFFFCFFFF
(1626967581.542912) can1 18F0010B#0001F0FFFF0DFFFF
(1626967581.543508) can1 14FEF121#F7FFFF0FFFFFFFFF
(1626967581.545159) can1 18FF1919#01030A00FFFFFFFF
(1626967581.546345) can1 14FF3131#4030030000FFFFF0
(1626967581.548231) can1 18FDC40B#FF00FFFFFFFFFFFF
(1626967581.549882) can1 0CF00400#017D7D000000F07D
(1626967581.550458) can1 14FF2321#041DE1FFFFFFFFFF
(1626967581.551026) can1 18FD7C00#F8F3C03430FFE3FF
(1626967581.551602) can1 18FEF117#F7FFFFFFFFFFFFFF
(1626967581.552178) can1 18F0233D#FFFFFFFFFF0CFFFF
(1626967581.552754) can1 18FF1B19#FFFCFFFFFFFFFFFF
(1626967581.553341) can1 18FF2017#0000000000000000
(1626967581.553901) can1 14FEF131#CFFFFFF300FFFF30
(1626967581.556698) can1 0CF00A01#00000000FFFFFFFF
(1626967581.557286) can1 10F01A01#0000FFFFFFFFFFFF
(1626967581.557881) can1 10FCFD01#FFFFFFFF0000FFFF
(1626967581.558485) can1 18FD9401#9407FFFF0000C503
(1626967581.559065) can1 18FDA101#F302FFFFFFFF00FF
(1626967581.559661) can1 10FDA301#FFFFFFFFFFFFFFFF
(1626967581.560248) can1 18FDAA01#FFFFFFFFFFFFFF31
(1626967581.560827) can1 0CF00400#017D7D000000F07D
(1626967581.561413) can1 14FF0121#FFFFFFFFFFFFFCFF
(1626967581.561991) can1 18F0000F#007DFFFF0F7DFFFF
(1626967581.562574) can1 18FDD001#FFFFFF0031FFFFFF
(1626967581.563146) can1 18FEF600#FF004431FF8025FF
(1626967581.563726) can1 0CF00421#FFFFFFFFFFFFFFFF
(1626967581.564311) can1 18FEE400#007FFFFC007FFFFF
(1626967581.564887) can1 18FF2FA0#DBFE7C03FAFFFFFF
(1626967581.565469) can1 1CFE9201#FF0071FFFFFFFFFF
(1626967581.566031) can1 18FEDB01#E900E900E900FFFF
(1626967581.566607) can1 18F00E3D#8890FFFFFFFFFFFF
(1626967581.567190) can1 18F00F3D#8890FFFFFFFFFFFF
(1626967581.567783) can1 18FD8C3D#00000300FFFFFFFF
(1626967581.568367) can1 18FDB23D#FFFF83250000FFFF
(1626967581.568954) can1 18FDB300#FFFF8325FFFFFFFF
(1626967581.569538) can1 18FDB400#83258325FFFFFFFF
(1626967581.570114) can1 0CF00400#017D7D000000F07D
(1626967581.570686) can1 10FE6F2A#FFFF00C0007D00FF
(1626967581.571274) can1 14FF0221#FFFFFFFFFFFFFFFF
(1626967581.571860) can1 0CF02FA0#01F9FAFFFFFFFFFF
(1626967581.572451) can1 18FF3000#0000FFFFFFFFFFFF
(1626967581.573663) can1 14FDA421#FFFFFFFFFFFFFFFF
(1626967581.579796) can1 0CF00400#017D7D000000F07D
(1626967581.580379) can1 0CF00300#DD0000FFFFFF00FF
(1626967581.580987) can1 14FFA000#FCFFFFFFFFFFFFFF
(1626967581.581579) can1 18FEF200#000000009503FFFF
(1626967581.583495) can1 14FEF031#FFFFFFFFFFFC00FF
(1626967581.585207) can1 0C0BA027#FDFFFFFFFFFFFF86
(1626967581.589847) can1 0CF00400#017D7D000000F07D
(1626967581.590424) can1 0C00000B#FCFFFAFAFFFFFFFF
(1626967581.591029) can1 0C0A002A#C1FFFFFFFFFFFFFF
(1626967581.591586) can1 10FF2121#32000FC0C0FFFF00
(1626967581.592179) can1 18FEDF00#7D0013FF7D0000FF
(1626967581.592768) can1 18FE5600#AB40FFFF1F1F00FF
(1626967581.599928) can1 0CF00400#017D7D000000F07D
(1626967581.600501) can1 18FEC100#B997CC07B997CC07
(1626967581.601753) can1 18F0233D#FFFFFFFFFF0CFFFF
(1626967581.602340) can1 18FD413D#FFFFFFFFFCFCFCFC
(1626967581.606701) can1 0CF00A01#00000000FFFFFFFF
(1626967581.607284) can1 10F01A01#0000FFFFFFFFFFFF
(1626967581.609879) can1 0CF00400#017D7D000000F07D
(1626967581.610480) can1 18FEF000#FFFFFFFFFFFFFFFF
(1626967581.611051) can1 18FF2FA0#DB007D03FAFFFFFF
(1626967581.611635) can1 18FEF700#FFFFFFFFF400F400
(1626967581.614256) can1 18F00E3D#8890FFFFFFFFFFFF
(1626967581.614834) can1 18F00F3D#8890FFFFFFFFFFFF
(1626967581.619845) can1 0CF00400#017D7D000000F07D
(1626967581.620423) can1 0CF02FA0#01F9FAFFFFFFFFFF
(1626967581.620978) can1 18FEE000#1CDD4F001CDD4F00
(1626967581.623414) can1 14F00031#CFFFFFFFFFFFFFFF
(1626967581.627046) can1 18FEBF0B#00007D7D7D7D7D7D
(1626967581.630080) can1 0CF00400#017D7D000000F07D
(1626967581.630664) can1 0CF00300#DD0000FFFFFF00FF
(1626967581.631251) can1 18FEF100#C700000000001F30
(1626967581.633500) can1 14F00131#FFFFFFFF00FFFFFF
(1626967581.635198) can1 0C0BA027#FDFFFFFFFFFFFF97
(1626967581.637675) can1 18FE4F3E#0400FFFFFFFFFFFF
(1626967581.639881) can1 0CF00400#017D7D000000F07D
(1626967581.640509) can1 10FF2121#32000FC0C0FFFF00
(1626967581.641077) can1 18FEDF00#7D0013FF7D0000FF
(1626967581.642978) can1 18F0010B#0001F0FFFF0DFFFF
(1626967581.643547) can1 14FEF121#F7FFFF0FFFFFFFFF
(1626967581.646167) can1 14FF3131#4030030000FFFFF0
(1626967581.648295) can1 18FDC40B#FF00FFFFFFFFFFFF
(1626967581.649878) can1 0CF00400#017D7D000000F07D
(1626967581.650455) can1 14FF2321#041DE1FFFFFFFFFF
(1626967581.651880) can1 18FEF117#F7FFFFFFFFFFFFFF
(1626967581.652374) can1 18F0233D#FFFFFFFFFF0CFFFF
(1626967581.652960) can1 18FF2017#0000000000000000
(1626967581.653904) can1 14FEF131#CFFFFFF300FFFF30
(1626967581.656697) can1 0CF00A01#00000000FFFFFFFF
(1626967581.657289) can1 10F01A01#0000FFFFFFFFFFFF
(1626967581.657884) can1 18FECA01#03FF00000000FFFF
(1626967581.658508) can1 10FCFD01#FFFFFFFF0000FFFF
(1626967581.659084) can1 18FD9401#9407FFFF0000C503
(1626967581.659665) can1 18FDA101#F302FFFFFFFF00FF
(1626967581.660294) can1 10FDA301#FFFFFFFFFFFFFFFF
(1626967581.660865) can1 0CF00400#017D7D000000F07D
(1626967581.661448) can1 14FF0121#FFFFFFFFFFFFFCFF
(1626967581.662028) can1 18F0000F#007DFFFF0F7DFFFF
(1626967581.662605) can1 18FDAA01#FFFFFFFFFFFFFF31
(1626967581.663184) can1 18FF2FA0#DBFF7C03FAFFFFFF
(1626967581.663765) can1 0CF00421#FFFFFFFFFFFFFFFF
(1626967581.664417) can1 18FDD001#FFFFFF0031FFFFFF
(1626967581.664955) can1 1CFE9201#FF0071FFFFFFFFFF
(1626967581.665558) can1 18FEDB01#E900E900E900FFFF
(1626967581.666138) can1 18FD6501#6702FFFFFFFFFFFF
(1626967581.666726) can1 18FD6601#FF40FFFFFFFFFFFF
(1626967581.667287) can1 18FE6901#95252A25FFFF2125
(1626967581.667888) can1 18FE9701#FFFFFFFFFFFFFFFF
(1626967581.668483) can1 18FE9801#6027FFFFFFFFFFFF
(1626967581.669078) can1 18FE9901#007DFFFFFFFFFFFF
(1626967581.669670) can1 18FE9A01#201DFFFFFFFFFFFF
(1626967581.670265) can1 18FEDD01#FF0000FFFFFFFFFF
(1626967581.670841) can1 0CF00400#017D7D000000F07D
(1626967581.671413) can1 10FE6F2A#FFFF00C0007D00FF
(1626967581.672009) can1 14FF0221#FFFFFFFFFFFFFFFF
(1626967581.672574) can1 0C040B2A#FFFFCCFFFFFFFF15
(1626967581.673154) can1 0CF02FA0#01F9FAFFFFFFFFFF
(1626967581.673737) can1 14FDA421#FFFFFFFFFFFFFFFF
(1626967581.674301) can1 18F00E3D#8890FFFFFFFFFFFF
(1626967581.674897) can1 18FF3000#0000FFFFFFFFFFFF
(1626967581.675470) can1 18F00F3D#8890FFFFFFFFFFFF
(1626967581.676045) can1 18FFAA01#0000B8049C7D9561
(1626967581.676634) can1 18FECA3D#03FF00000000FFFF
(1626967581.677205) can1 18FFAB01#B51708007D00F401
(1626967581.677797) can1 18FD8C3D#00000300FFFFFFFF
(1626967581.678381) can1 18FDB23D#FFFF83250000FFFF
(1626967581.678961) can1 18FFAC01#000000190F00F0FF
(1626967581.679550) can1 18FDB300#FFFF8325FFFFFFFF
(1626967581.680129) can1 0CF00400#017D7D000000F07D
(1626967581.680709) can1 18FFAD01#0C00FFFFFFFFFFFF
(1626967581.681282) can1 0CF00300#DD0000FFFFFF00FF
(1626967581.681866) can1 18FDB400#83258325FFFFFFFF
(1626967581.682449) can1 14FFA000#FCFFFFFFFFFFFFFF
(1626967581.683031) can1 18FFAE01#00FF00000000FFFF
(1626967581.683610) can1 18FEF200#000000009503FFFF
(1626967581.684205) can1 14FEF031#FFFFFFFFFFFC00FF
(1626967581.684780) can1 18FECA0B#00FF00000000FFFF
(1626967581.685363) can1 0C0BA027#FDFFFFFFFFFFFFA8
(1626967581.685946) can1 18FFA63D#00FF00000000FFFF
(1626967581.689827) can1 0CF00400#017D7D000000F07D
(1626967581.690402) can1 0C00000B#FCFFFAFAFFFFFFFF
(1626967581.690990) can1 0C0A002A#C1FFFFFFFFFFFFFF
(1626967581.691562) can1 10FF2121#32000FC0C0FFFF00
(1626967581.692149) can1 18FEDF00#7D0013FF7D0000FF
(1626967581.692727) can1 18FD9B3D#FFFFFFFFFFFFFFFF
(1626967581.693291) can1 18FF2221#0300C31501F7FFFF
(1626967581.699934) can1 0CF00400#017D7D000000F07D
(1626967581.701743) can1 18F0233D#FFFFFFFFFF0CFFFF
(1626967581.702328) can1 18FD413D#FFFFFFFFFCFCFCFC
(1626967581.706686) can1 0CF00A01#00000000FFFFFFFF
(1626967581.707301) can1 10F01A01#0000FFFFFFFFFFFF
(1626967581.709858) can1 0CF00400#017D7D000000F07D
(1626967581.710456) can1 18FEF000#FFFFFFFFFFFFFFFF
(1626967581.711032) can1 18FF2FA0#DBFE7C03FAFFFFFF
(1626967581.711608) can1 0C00100B#FCFFFA00FFFFFFFF
(1626967581.712341) can1 18FFA53D#000A511B7F256D25
(1626967581.714252) can1 18F00E3D#8890FFFFFFFFFFFF
(1626967581.714832) can1 18F00F3D#8890FFFFFFFFFFFF
(1626967581.716489) can1 0C000F0B#FCFFFA00FFFFFFFF
(1626967581.719860) can1 0CF00400#017D7D000000F07D
(1626967581.720436) can1 0CF02FA0#01F9FAFFFFFFFFFF
(1626967581.720992) can1 18FEE000#1CDD4F001CDD4F00
(1626967581.721784) can1 0C00290B#FCFFFA00FFFFFFFF
(1626967581.723425) can1 14F00031#CFFFFFFFFFFFFFFF
(1626967581.724125) can1 18E00021#FFFFFFFFFFFFFFFF
(1626967581.727105) can1 18FEBF0B#00007D7D7D7D7D7D
(1626967581.730121) can1 0CF00400#017D7D000000F07D
(1626967581.730705) can1 0CF00300#DD0000FFFFFF00FF
(1626967581.731293) can1 18FEF100#C700000000001F30
(1626967581.731912) can1 18FD0700#0300003FFCFFFFFF
(1626967581.733454) can1 14F00131#FFFFFFFF00FFFFFF
(1626967581.734182) can1 18FEFF47#FFFFFFFFFFFFFFFF
(1626967581.735205) can1 18FE5127#1DFFFFFFFFFFFFFF
(1626967581.735798) can1 0C0BA027#FDFFFFFFFFFFFFB9
(1626967581.737742) can1 18FE4F3E#0400FFFFFFFFFFFF
(1626967581.739943) can1 0CF00400#017D7D000000F07D
(1626967581.740508) can1 10FF2121#32000FC0C0FFFF00
(1626967581.741091) can1 18FEDF00#7D0013FF7D0000FF
(1626967581.743044) can1 18F0010B#0001F0FFFF0DFFFF
(1626967581.743624) can1 10FECA47#00FF00000000FFFF
(1626967581.744314) can1 14FEF121#F7FFFF0FFFFFFFFF
(1626967581.746164) can1 14FF3131#4030030000FFFFF0
(1626967581.748360) can1 18FDC40B#FF00FFFFFFFFFFFF
(1626967581.749900) can1 0CF00400#017D7D000000F07D
(1626967581.750476) can1 14FF2321#041DE1FFFFFFFFFF
(1626967581.752171) can1 18F0233D#FFFFFFFFFF0CFFFF
(1626967581.753509) can1 10FECA31#00FF00000000FFFF
(1626967581.754217) can1 14FEF131#CFFFFFF300FFFF30
(1626967581.754756) can1 18EA0017#E9FE00
(1626967581.755332) can1 18FD0517#03033FFFFFFFFFFF
(1626967581.755921) can1 18FD0417#D0FFFFFFFFFFFFFF
(1626967581.756488) can1 18FEF717#FFFFFFFFF600FFFF
(1626967581.757072) can1 0CF00A01#00000000FFFFFFFF
(1626967581.757639) can1 18FEFA17#FF2122FFFFFFFFFF
(1626967581.758220) can1 10F01A01#0000FFFFFFFFFFFF
(1626967581.758796) can1 18FF1817#001000400000FEFF
(1626967581.759380) can1 10FCFD01#FFFFFFFF0000FFFF
(1626967581.759956) can1 18FF1917#00FFFFFF400000E1
(1626967581.760536) can1 14FF0121#FFFFFFFFFFFFFCFF
(1626967581.761113) can1 0CF00400#017D7D000000F07D
(1626967581.761676) can1 18FD9401#9407FFFF0000C503
(1626967581.762257) can1 18F0000F#007DFFFF0F7DFFFF
(1626967581.762824) can1 18FDA101#F302FFFFFFFF00FF
(1626967581.763400) can1 18FECA17#00FF00000000FFFF
(1626967581.763984) can1 0CF00421#FFFFFFFFFFFFFFFF
(1626967581.764580) can1 10FDA301#FFFFFFFFFFFFFFFF
(1626967581.765142) can1 10FECA21#00FF00000000FFFF
(1626967581.765717) can1 18FDAA01#FFFFFFFFFFFFFF31
(1626967581.766280) can1 18FEE900#E300000019740700
(1626967581.766865) can1 18FDD001#FFFFFF0031FFFFFF
(1626967581.767445) can1 18FEFC17#FF3AFFFFFFFFFFFF
(1626967581.768029) can1 18FEF117#F7FFFFFFFFFFFFFF
(1626967581.768614) can1 18FF2017#0000000000000000
(1626967581.769182) can1 18FEC117#FC11CC07FFFFFFFF
(1626967581.769762) can1 18E0FF17#FFFFFF3FFFFFFFFF
(1626967581.770349) can1 14FF0221#FFFFFFFFFFFFFFFF
(1626967581.770925) can1 0CF00400#017D7D000000F07D
(1626967581.771500) can1 18FF2FA0#DBFE7C03FAFFFFFF
(1626967581.772104) can1 18FF3000#0000FFFFFFFFFFFF
(1626967581.772677) can1 0CF02FA0#01F9FAFFFFFFFFFF
(1626967581.773257) can1 1CFE9201#FF0071FFFFFFFFFF
(1626967581.773829) can1 10FE6F2A#FFFF00C0007D00FF
(1626967581.774413) can1 14FDA421#FFFFFFFFFFFFFFFF
(1626967581.774969) can1 18FEDB01#E900E900E900FFFF
(1626967581.775549) can1 1CFEC347#FFFFFFFFFFFFFFFF
(1626967581.776129) can1 18FD3C3D#0000FFFFFFFCFFFF
(1626967581.776697) can1 18F00E3D#8890FFFFFFFFFFFF
(1626967581.777282) can1 18F00F3D#8890FFFFFFFFFFFF
(1626967581.777873) can1 18FD8C3D#00000300FFFFFFFF
(1626967581.778470) can1 18FDB23D#FFFF83250000FFFF
(1626967581.779058) can1 18FDB300#FFFF8325FFFFFFFF
(1626967581.779641) can1 18FDB400#83258325FFFFFFFF
(1626967581.780218) can1 0CF00400#017D7D000000F07D
(1626967581.780806) can1 0CF00300#DD0000FFFFFF00FF
(1626967581.781410) can1 14FFA000#FCFFFFFFFFFFFFFF
(1626967581.782002) can1 18FEF200#000000009503FFFF
(1626967581.782574) can1 18FFA33D#0000EF058010FFFF
(1626967581.783670) can1 14FEF031#FFFFFFFFFFFC00FF
(1626967581.785295) can1 0C0BA027#FDFFFFFFFFFFFFCA
(1626967581.789878) can1 0CF00400#017D7D000000F07D
(1626967581.790454) can1 0C00000B#FCFFFAFAFFFFFFFF
(1626967581.791042) can1 0C0A002A#C1FFFFFFFFFFFFFF
(1626967581.791614) can1 10FF2121#32000FC0C0FFFF00
(1626967581.792201) can1 18FEDF00#7D0013FF7D0000FF
(1626967581.792760) can1 18FFA43D#D606D6060000FCFF
(1626967581.793777) can1 18FF2421#BFF0FCFFFFFFFFFF
(1626967581.799953) can1 0CF00400#017D7D000000F07D
(1626967581.801786) can1 18F0233D#FFFFFFFFFF0CFFFF
(1626967581.802371) can1 18FD413D#FFFFFFFFFCFCFCFC
(1626967581.802943) can1 18FFA23D#0000DF1AE8031810
(1626967581.803527) can1 10FECA25#00FF00000000FFFF
(1626967581.806694) can1 0CF00A01#00000000FFFFFFFF
(1626967581.807283) can1 10F01A01#0000FFFFFFFFFFFF
(1626967581.809947) can1 0CF00400#017D7D000000F07D
(1626967581.810547) can1 18FEF000#FFFFFFFFFFFFFFFF
(1626967581.811123) can1 18FF2FA0#DBFE7C03FAFFFFFF
(1626967581.812449) can1 18FFA03D#1A0D1A0019001AFF
(1626967581.813571) can1 18FEF521#FFFFFFFFFFFFFFFF
(1626967581.814271) can1 18F00E3D#8890FFFFFFFFFFFF
(1626967581.814833) can1 18F00F3D#8890FFFFFFFFFFFF
(1626967581.819905) can1 0CF00400#017D7D000000F07D
(1626967581.820479) can1 0CF02FA0#01F9FAFFFFFFFFFF
(1626967581.821036) can1 18FEE000#1CDD4F001CDD4F00
(1626967581.821611) can1 18FECA2A#00FF00000000FFFF
(1626967581.822399) can1 18FFA13D#9E029E021A000000
(1626967581.823591) can1 14F00031#CFFFFFFFFFFFFFFF
(1626967581.827178) can1 18FEBF0B#00007D7D7D7D7D7D
(1626967581.830088) can1 0CF00400#017D7D000000F07D
(1626967581.830664) can1 0CF00300#DD0000FFFFFF00FF
(1626967581.831241) can1 18FECAA0#00FF00000000FFFF
(1626967581.831815) can1 18FEF100#C700000000001F30
(1626967581.833517) can1 14F00131#FFFFFFFF00FFFFFF
(1626967581.835197) can1 0C0BA027#FDFFFFFFFFFFFFEB
(1626967581.837810) can1 18FE4F3E#0400FFFFFFFFFFFF
(1626967581.839869) can1 0CF00400#017D7D000000F07D
(1626967581.840443) can1 10FF2121#32000FC0C0FFFF00
(1626967581.841028) can1 18FEDF00#7D0013FF7D0000FF
(1626967581.843109) can1 18F0010B#0001F0FFFF0DFFFF
(1626967581.843676) can1 14FEF121#F7FFFF0FFFFFFFFF
(1626967581.846206) can1 14FF3131#4030030000FFFFF0
(1626967581.848423) can1 18FDC40B#FF00FFFFFFFFFFFF
(1626967581.849872) can1 0CF00400#017D7D000000F07D
(1626967581.850448) can1 14FF2321#041DE1FFFFFFFFFF
(1626967581.851467) can1 18FEF117#F7FFFFFFFFFFFFFF
(1626967581.852061) can1 18FF2017#0000000000000000
(1626967581.852627) can1 18F0233D#FFFFFFFFFF0CFFFF
(1626967581.853647) can1 14FEF131#CFFFFFF300FFFF30
(1626967581.856699) can1 0CF00A01#00000000FFFFFFFF
(1626967581.857288) can1 10F01A01#0000FFFFFFFFFFFF
(1626967581.857885) can1 10FCFD01#FFFFFFFF0000FFFF
(1626967581.858480) can1 18FD9401#9407FFFF0000C503
(1626967581.859060) can1 18FDA101#F302FFFFFFFF00FF
(1626967581.859664) can1 10FDA301#FFFFFFFFFFFFFFFF
(1626967581.860246) can1 18FDAA01#FFFFFFFFFFFFFF31
(1626967581.860822) can1 0CF00400#017D7D000000F07D
(1626967581.861405) can1 14FF0121#FFFFFFFFFFFFFCFF
(1626967581.861985) can1 18F0000F#007DFFFF0F7DFFFF
(1626967581.862568) can1 18FDD001#FFFFFF0031FFFFFF
(1626967581.863149) can1 18FF2FA0#DBFF7C03FAFFFFFF
(1626967581.863748) can1 1CFE9201#FF0071FFFFFFFFFF
(1626967581.864312) can1 0CF00421#FFFFFFFFFFFFFFFF
(1626967581.864866) can1 18FEDB01#E900E900E900FFFF
(1626967581.865437) can1 18F00E3D#8890FFFFFFFFFFFF
(1626967581.866017) can1 18F00F3D#8890FFFFFFFFFFFF
(1626967581.866689) can1 18FD8C3D#00000300FFFFFFFF
(1626967581.867206) can1 18FDB23D#FFFF83250000FFFF
(1626967581.867790) can1 18FDB300#FFFF8325FFFFFFFF
(1626967581.868374) can1 18FDB400#83258325FFFFFFFF
(1626967581.869937) can1 0CF00400#017D7D000000F07D
(1626967581.870510) can1 10FE6F2A#FFFF00C0007D00FF
(1626967581.871099) can1 14FF0221#FFFFFFFFFFFFFFFF
(1626967581.871667) can1 0C040B2A#FFFFCCFFFFFFFF26
(1626967581.872254) can1 0CF02FA0#01F9FAFFFFFFFFFF
(1626967581.872841) can1 18FF3000#0000FFFFFFFFFFFF
(1626967581.873685) can1 14FDA421#FFFFFFFFFFFFFFFF
(1626967581.876214) can1 18A9FE31#FFFFFFFFFFFFFFFF
(1626967581.879834) can1 0CF00400#017D7D000000F07D
(1626967581.880417) can1 0CF00300#DD0000FFFFFF00FF
(1626967581.881022) can1 14FFA000#FCFFFFFFFFFFFFFF
(1626967581.881613) can1 18FEF200#000000009503FFFF
(1626967581.883501) can1 14FEF031#FFFFFFFFFFFC00FF
(1626967581.885202) can1 0C0BA027#FDFFFFFFFFFFFFFC
(1626967581.889845) can1 0CF00400#017D7D000000F07D
(1626967581.890421) can1 0C00000B#FCFFFAFAFFFFFFFF
(1626967581.891009) can1 0C0A002A#C1FFFFFFFFFFFFFF
(1626967581.891581) can1 10FF2121#32000FC0C0FFFF00
(1626967581.892168) can1 18FEDF00#7D0013FF7D0000FF
(1626967581.893586) can1 18FEF621#FFFFFFFFFFFFFFFF
(1626967581.899916) can1 0CF00400#017D7D000000F07D
(1626967581.901744) can1 18F0233D#FFFFFFFFFF0CFFFF
(1626967581.902330) can1 18FD413D#FFFFFFFFFCFCFCFC
(1626967581.903517) can1 18FEF721#FFFFFFFFF300FFFF
(1626967581.906696) can1 0CF00A01#00000000FFFFFFFF
(1626967581.907279) can1 10F01A01#0000FFFFFFFFFFFF
(1626967581.909865) can1 0CF00400#017D7D000000F07D
(1626967581.910464) can1 18FEF000#FFFFFFFFFFFFFFFF
(1626967581.911034) can1 18FF2FA0#DB007D03FAFFFFFF
(1626967581.911610) can1 0C00100B#FCFFFA00FFFFFFFF
(1626967581.913448) can1 18E00031#FFFFFFFFFFF3FFFF
(1626967581.914250) can1 18F00E3D#8890FFFFFFFFFFFF
(1626967581.914831) can1 18F00F3D#8890FFFFFFFFFFFF
(1626967581.916617) can1 0C000F0B#FCFFFA00FFFFFFFF
(1626967581.919882) can1 0CF00400#017D7D000000F07D
(1626967581.920440) can1 0CF02FA0#01F9FAFFFFFFFFFF
(1626967581.920995) can1 18FEE000#1CDD4F001CDD4F00
(1626967581.921916) can1 0C00290B#FCFFFA00FFFFFFFF
(1626967581.923452) can1 14F00031#CFFFFFFFFFFFFFFF
(1626967581.927244) can1 18FEBF0B#00007D7D7D7D7D7D
(1626967581.930071) can1 0CF00400#017D7D000000F07D
(1626967581.930661) can1 0CF00300#DD0000FFFFFF00FF
(1626967581.931249) can1 18FEF100#C700000000001F30
(1626967581.933541) can1 14F00131#FFFFFFFF00FFFFFF
(1626967581.935177) can1 0C0BA027#FDFFFFFFFFFFFF0D
(1626967581.937877) can1 18FE4F3E#0400FFFFFFFFFFFF
(1626967581.939874) can1 0CF00400#017D7D000000F07D
(1626967581.940444) can1 10FF2121#32000FC0C0FFFF00
(1626967581.941029) can1 18FEDF00#7D0013FF7D0000FF
(1626967581.941624) can1 18FEEF00#19FFFF00FFFFFFFA
(1626967581.943173) can1 18F0010B#0001F0FFFF0DFFFF
(1626967581.943741) can1 14FEF121#F7FFFF0FFFFFFFFF
(1626967581.946206) can1 14FF3131#4030030000FFFFF0
(1626967581.948490) can1 18FDC40B#FF00FFFFFFFFFFFF
(1626967581.949874) can1 0CF00400#017D7D000000F07D
(1626967581.950451) can1 14FF2321#041DE1FFFFFFFFFF
(1626967581.951879) can1 18FEF117#F7FFFFFFFFFFFFFF
(1626967581.952446) can1 18F0233D#FFFFFFFFFF0CFFFF
(1626967581.953034) can1 18FF2017#0000000000000000
(1626967581.953639) can1 14FEF131#CFFFFFF300FFFF30
(1626967581.956699) can1 0CF00A01#00000000FFFFFFFF
(1626967581.957286) can1 10F01A01#0000FFFFFFFFFFFF
(1626967581.957882) can1 10FCFD01#FFFFFFFF0000FFFF
(1626967581.958490) can1 18FD9401#9407FFFF0000C503
(1626967581.959082) can1 18FDA101#F302FFFFFFFF00FF
(1626967581.959671) can1 10FDA301#FFFFFFFFFFFFFFFF
(1626967581.960256) can1 14FF0121#FFFFFFFFFFFFFCFF
(1626967581.960829) can1 18FDAA01#FFFFFFFFFFFFFF31
(1626967581.961405) can1 0CF00400#017D7D000000F07D
(1626967581.961987) can1 18FDD001#FFFFFF0031FFFFFF
(1626967581.962568) can1 18F0000F#007DFFFF0F7DFFFF
(1626967581.963139) can1 18FF2FA0#DB007D03FAFFFFFF
(1626967581.963719) can1 0CF00421#FFFFFFFFFFFFFFFF
(1626967581.964297) can1 1CFE9201#FF0071FFFFFFFFFF
(1626967581.964863) can1 18FEDB01#E900E900E900FFFF
(1626967581.965435) can1 18F00E3D#8890FFFFFFFFFFFF
(1626967581.966015) can1 18F00F3D#8890FFFFFFFFFFFF
(1626967581.966623) can1 18FD8C3D#00000300FFFFFFFF
(1626967581.967207) can1 18FDB23D#FFFF83250000FFFF
(1626967581.967799) can1 18FDB300#FFFF8325FFFFFFFF
(1626967581.968379) can1 18FDB400#83258325FFFFFFFF
(1626967581.969939) can1 0CF00400#017D7D000000F07D
(1626967581.970533) can1 14FF0221#FFFFFFFFFFFFFFFF
(1626967581.971102) can1 10FE6F2A#FFFF00C0007D00FF
(1626967581.971697) can1 18FF3000#0000FFFFFFFFFFFF
(1626967581.972276) can1 0CF02FA0#01F9FAFFFFFFFFFF
(1626967581.973441) can1 14FDA421#FFFFFFFFFFFFFFFF
(1626967581.979808) can1 0CF00400#017D7D000000F07D
(1626967581.980385) can1 0CF00300#DD0000FFFFFF00FF
(1626967581.980990) can1 14FFA000#FCFFFFFFFFFFFFFF
(1626967581.981581) can1 18FEF200#000000009503FFFF
(1626967581.983533) can1 14FEF031#FFFFFFFFFFFC00FF
(1626967581.985202) can1 18FE5127#1DFFFFFFFFFFFFFF
(1626967581.985780) can1 0C0BA027#FDFFFFFFFFFFFF1E
(1626967581.989832) can1 0CF00400#017D7D000000F07D
(1626967581.990408) can1 0C00000B#FCFFFAFAFFFFFFFF
(1626967581.990997) can1 0C0A002A#C1FFFFFFFFFFFFFF
(1626967581.991569) can1 10FF2121#32000FC0C0FFFF00
(1626967581.992155) can1 18FEDF00#7D0013FF7D0000FF
(1626967581.999905) can1 0CF00400#017D7D000000F07D
(1626967582.001733) can1 18F0233D#FFFFFFFFFF0CFFFF
(1626967582.002321) can1 18FD413D#FFFFFFFFFCFCFCFC
(1626967582.006692) can1 0CF00A01#00000000FFFFFFFF
(1626967582.007277) can1 10F01A01#0000FFFFFFFFFFFF
(1626967582.009875) can1 0CF00400#017D7D000000F07D
(1626967582.010478) can1 18FEF000#FFFFFFFFFFFFFFFF
(1626967582.011050) can1 18FF2FA0#DB007D03FAFFFFFF
(1626967582.014259) can1 18F00E3D#8890FFFFFFFFFFFF
(1626967582.014833) can1 18F00F3D#8890FFFFFFFFFFFF
(1626967582.019834) can1 0CF00400#017D7D000000F07D
(1626967582.020409) can1 0CF02FA0#01F9FAFFFFFFFFFF
(1626967582.020981) can1 14FD3E00#6325FF7C25FFFFFF
(1626967582.021549) can1 18FEE000#1CDD4F001CDD4F00
(1626967582.023513) can1 14F00031#CFFFFFFFFFFFFFFF
(1626967582.027303) can1 18FEBF0B#00007D7D7D7D7D7D
(1626967582.030087) can1 0CF00400#017D7D000000F07D
(1626967582.030671) can1 0CF00300#DD0000FFFFFF00FF
(1626967582.031258) can1 18FEF100#C700000000001F30
(1626967582.033559) can1 14F00131#FFFFFFFF00FFFFFF
(1626967582.035178) can1 0C0BA027#FDFFFFFFFFFFFF2F
(1626967582.037943) can1 18FE4F3E#0400FFFFFFFFFFFF
(1626967582.039877) can1 0CF00400#017D7D000000F07D
(1626967582.040447) can1 10FF2121#32000FC0C0FFFF00
(1626967582.041031) can1 18FEDF00#7D0013FF7D0000FF
(1626967582.043240) can1 18F0010B#0001F0FFFF0DFFFF
(1626967582.043812) can1 14FEF121#F7FFFF0FFFFFFFFF
(1626967582.045149) can1 18FF1919#01030A00FFFFFFFF
(1626967582.046340) can1 14FF3131#4030030000FFFFF0
(1626967582.048556) can1 18FDC40B#FF00FFFFFFFFFFFF
(1626967582.049881) can1 0CF00400#017D7D000000F07D
(1626967582.050457) can1 14FF2321#041DE1FFFFFFFFFF
(1626967582.051037) can1 18FF1B19#FFFCFFFFFFFFFFFF
(1626967582.051809) can1 18FEF117#F7FFFFFFFFFFFFFF
(1626967582.052377) can1 18F0233D#FFFFFFFFFF0CFFFF
(1626967582.052965) can1 18FF2017#0000000000000000
(1626967582.053826) can1 14FEF131#CFFFFFF300FFFF30
(1626967582.055185) can1 18E00019#00FFFFFFFFFFFFFF
(1626967582.056702) can1 0CF00A01#00000000FFFFFFFF
(1626967582.057290) can1 10F01A01#0000FFFFFFFFFFFF
(1626967582.057886) can1 10FCFD01#FFFFFFFF0000FFFF
(1626967582.058486) can1 18FD9401#9407FFFF0000C503
(1626967582.059066) can1 18FDA101#F302FFFFFFFF00FF
(1626967582.059662) can1 10FDA301#FFFFFFFFFFFFFFFF
(1626967582.060254) can1 18FDAA01#FFFFFFFFFFFFFF31
(1626967582.060837) can1 0CF00400#017D7D000000F07D
(1626967582.061434) can1 14FF0121#FFFFFFFFFFFFFCFF
(1626967582.061996) can1 18F0000F#007DFFFF0F7DFFFF
(1626967582.062576) can1 18FDD001#FFFFFF0031FFFFFF
(1626967582.063148) can1 18FEF600#FF004431FF8025FF
(1626967582.063728) can1 0CF00421#FFFFFFFFFFFFFFFF
(1626967582.064305) can1 18FEF719#FFFFFFFFFFFFF400
(1626967582.064885) can1 18FF2FA0#DB017D03FAFFFFFF
(1626967582.065463) can1 1CFE9201#FF0071FFFFFFFFFF
(1626967582.066027) can1 18FEDB01#E900E900E900FFFF
(1626967582.066603) can1 18F00E3D#8890FFFFFFFFFFFF
(1626967582.067187) can1 18F00F3D#8890FFFFFFFFFFFF
(1626967582.067779) can1 18FD8C3D#00000300FFFFFFFF
(1626967582.068363) can1 18FDB23D#FFFF83250000FFFF
(1626967582.068951) can1 18FDB300#FFFF8325FFFFFFFF
(1626967582.069539) can1 18FDB400#83258325FFFFFFFF
(1626967582.070115) can1 0CF00400#017D7D000000F07D
(1626967582.070687) can1 10FE6F2A#FFFF00C0007D00FF
(1626967582.071275) can1 14FF0221#FFFFFFFFFFFFFFFF
(1626967582.071848) can1 0C040B2A#FFFFCCFFFFFFFF37
(1626967582.072440) can1 18FF3000#0000FFFFFFFFFFFF
(1626967582.073024) can1 0CF02FA0#01F9FAFFFFFFFFFF
(1626967582.073654) can1 14FDA421#FFFFFFFFFFFFFFFF
(1626967582.079799) can1 0CF00400#017D7D000000F07D
(1626967582.080381) can1 0CF00300#DD0000FFFFFF00FF
(1626967582.080985) can1 14FFA000#FCFFFFFFFFFFFFFF
(1626967582.081577) can1 18FEF200#000000009503FFFF
(1626967582.083537) can1 14FEF031#FFFFFFFFFFFC00FF
(1626967582.085198) can1 0C0BA027#FDFFFFFFFFFFFF20
(1626967582.089825) can1 0CF00400#017D7D000000F07D
(1626967582.090400) can1 0C00000B#FCFFFAFAFFFFFFFF
(1626967582.090988) can1 0C0A002A#C1FFFFFFFFFFFFFF
(1626967582.091560) can1 10FF2121#32000FC0C0FFFF00
(1626967582.092146) can1 18FEDF00#7D0013FF7D0000FF
(1626967582.099900) can1 0CF00400#017D7D000000F07D
(1626967582.101737) can1 18F0233D#FFFFFFFFFF0CFFFF
(1626967582.102325) can1 18FD413D#FFFFFFFFFCFCFCFC
(1626967582.106689) can1 0CF00A01#00000000FFFFFFFF
(1626967582.107276) can1 10F01A01#0000FFFFFFFFFFFF
(1626967582.109856) can1 0CF00400#017D7D000000F07D
(1626967582.110458) can1 18FEF000#FFFFFFFFFFFFFFFF
(1626967582.111037) can1 18FF2FA0#DBFF7C03FAFFFFFF
(1626967582.111613) can1 0C00100B#FCFFFA00FFFFFFFF
(1626967582.114257) can1 18F00E3D#8890FFFFFFFFFFFF
(1626967582.114834) can1 18F00F3D#8890FFFFFFFFFFFF
(1626967582.116748) can1 0C000F0B#FCFFFA00FFFFFFFF
(1626967582.119850) can1 0CF00400#017D7D000000F07D
(1626967582.120418) can1 18FEE000#1CDD4F001CDD4F00
(1626967582.120998) can1 0CF02FA0#01F9FAFFFFFFFFFF
(1626967582.122050) can1 0C00290B#FCFFFA00FFFFFFFF
(1626967582.123402) can1 14F00031#CFFFFFFFFFFFFFFF
(1626967582.127375) can1 18FEBF0B#00007D7D7D7D7D7D
(1626967582.130065) can1 0CF00400#017D7D000000F07D
(1626967582.130637) can1 0CF00300#DD0000FFFFFF00FF
(1626967582.131236) can1 18FEF100#C700000000001F30
(1626967582.133417) can1 14F00131#FFFFFFFF00FFFFFF
(1626967582.135171) can1 0C0BA027#FDFFFFFFFFFFFF31
(1626967582.138008) can1 18FE4F3E#0400FFFFFFFFFFFF
(1626967582.139873) can1 0CF00400#017D7D000000F07D
(1626967582.140444) can1 10FF2121#32000FC0C0FFFF00
(1626967582.141028) can1 18FEDF00#7D0013FF7D0000FF
(1626967582.143304) can1 18F0010B#0001F0FFFF0DFFFF
(1626967582.143876) can1 14FEF121#F7FFFF0FFFFFFFFF
(1626967582.146165) can1 14FF3131#4030030000FFFFF0
(1626967582.148621) can1 18FDC40B#FF00FFFFFFFFFFFF
(1626967582.149889) can1 0CF00400#017D7D000000F07D
(1626967582.150465) can1 14FF2321#041DE1FFFFFFFFFF
(1626967582.151650) can1 18FEF117#F7FFFFFFFFFFFFFF
(1626967582.152225) can1 18F0233D#FFFFFFFFFF0CFFFF
(1626967582.152809) can1 18FF2017#0000000000000000
(1626967582.153637) can1 14FEF131#CFFFFFF300FFFF30
(1626967582.156697) can1 0CF00A01#00000000FFFFFFFF
(1626967582.157285) can1 10F01A01#0000FFFFFFFFFFFF
(1626967582.157881) can1 10FCFD01#FFFFFFFF0000FFFF
(1626967582.158481) can1 18FD9401#9407FFFF0000C503
(1626967582.159061) can1 18FDA101#F302FFFFFFFF00FF
(1626967582.159657) can1 10FDA301#FFFFFFFFFFFFFFFF
(1626967582.160249) can1 18FDAA01#FFFFFFFFFFFFFF31
(1626967582.160821) can1 0CF00400#017D7D000000F07D
(1626967582.161405) can1 14FF0121#FFFFFFFFFFFFFCFF
(1626967582.161986) can1 18F0000F#007DFFFF0F7DFFFF
(1626967582.162582) can1 18FDD001#FFFFFF0031FFFFFF
(1626967582.163153) can1 18FF2FA0#DBFF7C03FAFFFFFF
(1626967582.163733) can1 0CF00421#FFFFFFFFFFFFFFFF
(1626967582.164313) can1 1CFE9201#FF0071FFFFFFFFFF
(1626967582.164876) can1 18FEDB01#E900E900E900FFFF
(1626967582.165458) can1 18FD6501#6702FFFFFFFFFFFF
(1626967582.166030) can1 18F00E3D#8890FFFFFFFFFFFF
(1626967582.166614) can1 18F00F3D#8890FFFFFFFFFFFF
(1626967582.167206) can1 18FD8C3D#00000300FFFFFFFF
(1626967582.167796) can1 18FDB23D#FFFF83250000FFFF
(1626967582.168379) can1 18FDB300#FFFF8325FFFFFFFF
(1626967582.168962) can1 18FDB400#83258325FFFFFFFF
(1626967582.169971) can1 0CF00400#017D7D000000F07D
(1626967582.170543) can1 10FE6F2A#FFFF00C0007D00FF
(1626967582.171130) can1 14FF0221#FFFFFFFFFFFFFFFF
(1626967582.171710) can1 0CF02FA0#01F9FAFFFFFFFFFF
(1626967582.172306) can1 18FF3000#0000FFFFFFFFFFFF
(1626967582.173571) can1 14FDA421#FFFFFFFFFFFFFFFF
(1626967582.179811) can1 0CF00400#017D7D000000F07D
(1626967582.180393) can1 0CF00300#DD0000FFFFFF00FF
(1626967582.180997) can1 14FFA000#FCFFFFFFFFFFFFFF
(1626967582.181588) can1 18FEF200#000000009503FFFF
(1626967582.183544) can1 14FEF031#FFFFFFFFFFFC00FF
(1626967582.185193) can1 0C0BA027#FDFFFFFFFFFFFF42
(1626967582.189840) can1 0CF00400#017D7D000000F07D
(1626967582.190413) can1 0C00000B#FCFFFAFAFFFFFFFF
(1626967582.191000) can1 0C0A002A#C1FFFFFFFFFFFFFF
(1626967582.191572) can1 10FF2121#32000FC0C0FFFF00
(1626967582.192159) can1 18FEDF00#7D0013FF7D0000FF
(1626967582.199905) can1 0CF00400#017D7D000000F07D
(1626967582.201733) can1 18F0233D#FFFFFFFFFF0CFFFF
(1626967582.202321) can1 18FD413D#FFFFFFFFFCFCFCFC
(1626967582.206693) can1 0CF00A01#00000000FFFFFFFF
(1626967582.207281) can1 10F01A01#0000FFFFFFFFFFFF
(1626967582.209852) can1 0CF00400#017D7D000000F07D
(1626967582.210453) can1 18FEF000#FFFFFFFFFFFFFFFF
(1626967582.211033) can1 18FF2FA0#DB017D03FAFFFFFF
(1626967582.214256) can1 18F00E3D#8890FFFFFFFFFFFF
(1626967582.214832) can1 18F00F3D#8890FFFFFFFFFFFF
(1626967582.219813) can1 0CF00400#017D7D000000F07D
(1626967582.220393) can1 0CF02FA0#01F9FAFFFFFFFFFF
(1626967582.220949) can1 18FEE000#1CDD4F001CDD4F00
(1626967582.223417) can1 14F00031#CFFFFFFFFFFFFFFF
(1626967582.227438) can1 18FEBF0B#00007D7D7D7D7D7D
(1626967582.230063) can1 0CF00400#017D7D000000F07D
(1626967582.230652) can1 0CF00300#DD0000FFFFFF00FF
(1626967582.231243) can1 18FEF100#C700000000001F30
(1626967582.233392) can1 14F00131#FFFFFFFF00FFFFFF
(1626967582.235174) can1 18FE5127#1DFFFFFFFFFFFFFF
(1626967582.235763) can1 0C0BA027#FDFFFFFFFFFFFF53
(1626967582.238067) can1 18FE4F3E#0400FFFFFFFFFFFF
(1626967582.239875) can1 0CF00400#017D7D000000F07D
(1626967582.240443) can1 10FF2121#32000FC0C0FFFF00
(1626967582.241027) can1 18FEDF00#7D0013FF7D0000FF
(1626967582.243367) can1 18F0010B#0001F0FFFF0DFFFF
(1626967582.243940) can1 14FEF121#F7FFFF0FFFFFFFFF
(1626967582.246168) can1 14FF3131#4030030000FFFFF0
(1626967582.248688) can1 18FDC40B#FF00FFFFFFFFFFFF
(1626967582.249873) can1 0CF00400#017D7D000000F07D
(1626967582.250450) can1 14FF2321#041DE1FFFFFFFFFF
(1626967582.252097) can1 18FEF117#F7FFFFFFFFFFFFFF
(1626967582.252665) can1 18F0233D#FFFFFFFFFF0CFFFF
(1626967582.253253) can1 18FF2017#0000000000000000
(1626967582.253813) can1 14FEF131#CFFFFFF300FFFF30
(1626967582.256698) can1 0CF00A01#00000000FFFFFFFF
(1626967582.257286) can1 10F01A01#0000FFFFFFFFFFFF
(1626967582.257882) can1 10FCFD01#FFFFFFFF0000FFFF
(1626967582.258482) can1 18FD9401#9407FFFF0000C503
(1626967582.259062) can1 18FDA101#F302FFFFFFFF00FF
(1626967582.259658) can1 10FDA301#FFFFFFFFFFFFFFFF
(1626967582.260250) can1 18FDAA01#FFFFFFFFFFFFFF31
(1626967582.260822) can1 0CF00400#017D7D000000F07D
(1626967582.261407) can1 14FF0121#FFFFFFFFFFFFFCFF
(1626967582.261987) can1 18F0000F#007DFFFF0F7DFFFF
(1626967582.262570) can1 18FDD001#FFFFFF0031FFFFFF
(1626967582.263142) can1 18FF2FA0#DB007D03FAFFFFFF
(1626967582.263723) can1 0CF00421#FFFFFFFFFFFFFFFF
(1626967582.264305) can1 1CFE9201#FF0071FFFFFFFFFF
(1626967582.264867) can1 18FEDB01#E900E900E900FFFF
(1626967582.265439) can1 18F00E3D#8890FFFFFFFFFFFF
(1626967582.266030) can1 18F00F3D#8890FFFFFFFFFFFF
(1626967582.266620) can1 18FD8C3D#00000300FFFFFFFF
(1626967582.267201) can1 18FDB23D#FFFF83250000FFFF
(1626967582.267787) can1 18FDB300#FFFF8325FFFFFFFF
(1626967582.268372) can1 18FDB400#83258325FFFFFFFF
(1626967582.269946) can1 0CF00400#017D7D000000F07D
(1626967582.270516) can1 14FF0221#FFFFFFFFFFFFFFFF
(1626967582.271087) can1 10FE6F2A#FFFF00C0007D00FF
(1626967582.271683) can1 18FF3000#0000FFFFFFFFFFFF
(1626967582.272256) can1 0C040B2A#FFFFCCFFFFFFFF48
(1626967582.272832) can1 0CF02FA0#01F9FAFFFFFFFFFF
(1626967582.273667) can1 14FDA421#FFFFFFFFFFFFFFFF
(1626967582.279794) can1 0CF00400#017D7D000000F07D
(1626967582.280379) can1 0CF00300#DD0000FFFFFF00FF
(1626967582.280986) can1 14FFA000#FCFFFFFFFFFFFFFF
(1626967582.281578) can1 18FEF200#000000009503FFFF
(1626967582.283615) can1 14FEF031#FFFFFFFFFFFC00FF
(1626967582.285189) can1 0C0BA027#FDFFFFFFFFFFFF64
(1626967582.289837) can1 0CF00400#017D7D000000F07D
(1626967582.290413) can1 0C00000B#FCFFFAFAFFFFFFFF
(1626967582.291001) can1 0C0A002A#C1FFFFFFFFFFFFFF
(1626967582.291572) can1 10FF2121#32000FC0C0FFFF00
(1626967582.292158) can1 18FEDF00#7D0013FF7D0000FF
(1626967582.293556) can1 18FF2421#BFF0FCFFFFFFFFFF
(1626967582.299929) can1 0CF00400#017D7D000000F07D
(1626967582.301764) can1 18F0233D#FFFFFFFFFF0CFFFF
(1626967582.302348) can1 18FD413D#FFFFFFFFFCFCFCFC
(1626967582.306689) can1 0CF00A01#00000000FFFFFFFF
(1626967582.307276) can1 10F01A01#0000FFFFFFFFFFFF
(1626967582.309877) can1 0CF00400#017D7D000000F07D
(1626967582.310477) can1 18FEF000#FFFFFFFFFFFFFFFF
(1626967582.311057) can1 18FF2FA0#DBFF7C03FAFFFFFF
(1626967582.311633) can1 0C00100B#FCFFFA00FFFFFFFF
(1626967582.314257) can1 18F00E3D#8890FFFFFFFFFFFF
(1626967582.314833) can1 18F00F3D#8890FFFFFFFFFFFF
(1626967582.316880) can1 0C000F0B#FCFFFA00FFFFFFFF
(1626967582.319862) can1 0CF00400#017D7D000000F07D
(1626967582.320430) can1 18FEE000#1CDD4F001CDD4F00
(1626967582.321010) can1 0CF02FA0#01F9FAFFFFFFFFFF
(1626967582.322178) can1 0C00290B#FCFFFA00FFFFFFFF
(1626967582.323410) can1 14F00031#CFFFFFFFFFFFFFFF
(1626967582.327500) can1 18FEBF0B#00007D7D7D7D7D7D
(1626967582.330055) can1 0CF00400#017D7D000000F07D
(1626967582.330639) can1 0CF00300#DD0000FFFFFF00FF
(1626967582.331239) can1 18FEF100#C700000000001F30
(1626967582.333509) can1 14F00131#FFFFFFFF00FFFFFF
(1626967582.335160) can1 0C0BA027#FDFFFFFFFFFFFF75
(1626967582.338144) can1 18FE4F3E#0400FFFFFFFFFFFF
(1626967582.339871) can1 0CF00400#017D7D000000F07D
(1626967582.340440) can1 10FF2121#32000FC0C0FFFF00
(1626967582.341025) can1 18FEDF00#7D0013FF7D0000FF
(1626967582.343384) can1 14FEF121#F7FFFF0FFFFFFFFF
(1626967582.343965) can1 18F0010B#0001F0FFFF0DFFFF
(1626967582.346481) can1 14FF3131#4030030000FFFFF0
(1626967582.348757) can1 18FDC40B#FF00FFFFFFFFFFFF
(1626967582.349881) can1 0CF00400#017D7D000000F07D
(1626967582.350457) can1 14FF2321#041DE1FFFFFFFFFF
(1626967582.351698) can1 18FEF117#F7FFFFFFFFFFFFFF
(1626967582.352272) can1 18F0233D#FFFFFFFFFF0CFFFF
(1626967582.352858) can1 18FF2017#0000000000000000
(1626967582.353449) can1 14FEF131#CFFFFFF300FFFF30
(1626967582.356698) can1 0CF00A01#00000000FFFFFFFF
(1626967582.357285) can1 10F01A01#0000FFFFFFFFFFFF
(1626967582.357881) can1 10FCFD01#FFFFFFFF0000FFFF
(1626967582.358485) can1 18FD9401#9407FFFF0000C503
(1626967582.359065) can1 18FDA101#F302FFFFFFFF00FF
(1626967582.359662) can1 10FDA301#FFFFFFFFFFFFFFFF
(1626967582.360253) can1 18FDAA01#FFFFFFFFFFFFFF31
(1626967582.360825) can1 0CF00400#017D7D000000F07D
(1626967582.361410) can1 14FF0121#FFFFFFFFFFFFFCFF
(1626967582.361990) can1 18F0000F#007DFFFF0F7DFFFF
(1626967582.362573) can1 18FDD001#FFFFFF0031FFFFFF
(1626967582.363153) can1 18FF2FA0#DBFF7C03FAFFFFFF
(1626967582.363733) can1 0CF00421#FFFFFFFFFFFFFFFF
(1626967582.364314) can1 1CFE9201#FF0071FFFFFFFFFF
(1626967582.364881) can1 18FEDB01#E900E900E900FFFF
(1626967582.365451) can1 18F00E3D#8890FFFFFFFFFFFF
(1626967582.366030) can1 18F00F3D#8890FFFFFFFFFFFF
(1626967582.366623) can1 18FD8C3D#00000300FFFFFFFF
(1626967582.367207) can1 18FDB23D#FFFF83250000FFFF
(1626967582.367817) can1 18FDB300#FFFF8325FFFFFFFF
(1626967582.368382) can1 18FDB400#83258325FFFFFFFF
(1626967582.369942) can1 0CF00400#017D7D000000F07D
(1626967582.370516) can1 10FE6F2A#FFFF00C0007D00FF
(1626967582.371100) can1 14FF0221#FFFFFFFFFFFFFFFF
(1626967582.371680) can1 0CF02FA0#01F9FAFFFFFFFFFF
(1626967582.372284) can1 18FF3000#0000FFFFFFFFFFFF
(1626967582.373428) can1 14FDA421#FFFFFFFFFFFFFFFF
(1626967582.379825) can1 0CF00400#017D7D000000F07D
(1626967582.380383) can1 0CF00300#DD0000FFFFFF00FF
(1626967582.380984) can1 14FFA000#FCFFFFFFFFFFFFFF
(1626967582.381575) can1 18FEF200#000000009503FFFF
(1626967582.383634) can1 14FEF031#FFFFFFFFFFFC00FF
(1626967582.385179) can1 0C0BA027#FDFFFFFFFFFFFF86
(1626967582.389825) can1 0CF00400#017D7D000000F07D
(1626967582.390404) can1 0C00000B#FCFFFAFAFFFFFFFF
(1626967582.391010) can1 0C0A002A#C1FFFFFFFFFFFFFF
(1626967582.391563) can1 10FF2121#32000FC0C0FFFF00
(1626967582.392155) can1 18FEDF00#7D0013FF7D0000FF
(1626967582.399906) can1 0CF00400#017D7D000000F07D
(1626967582.401737) can1 18F0233D#FFFFFFFFFF0CFFFF
(1626967582.402321) can1 18FD413D#FFFFFFFFFCFCFCFC
(1626967582.406689) can1 0CF00A01#00000000FFFFFFFF
(1626967582.407277) can1 10F01A01#0000FFFFFFFFFFFF
(1626967582.409857) can1 0CF00400#017D7D000000F07D
(1626967582.410457) can1 18FEF000#FFFFFFFFFFFFFFFF
(1626967582.411037) can1 18FF2FA0#DBFF7C03FAFFFFFF
(1626967582.414257) can1 18F00E3D#8890FFFFFFFFFFFF
(1626967582.414833) can1 18F00F3D#8890FFFFFFFFFFFF
(1626967582.419885) can1 0CF00400#017D7D000000F07D
(1626967582.420466) can1 0CF02FA0#01F9FAFFFFFFFFFF
(1626967582.421022) can1 18FEE000#1CDD4F001CDD4F00
(1626967582.421629) can1 18FECA00#03FF00000000FFFF
(1626967582.423433) can1 14F00031#CFFFFFFFFFFFFFFF
(1626967582.427571) can1 18FEBF0B#00007D7D7D7D7D7D
(1626967582.430210) can1 0CF00400#017D7D000000F07D
(1626967582.430794) can1 0CF00300#DD0000FFFFFF00FF
(1626967582.431390) can1 18FEF100#C700000000001F30
(1626967582.431992) can1 18FDE000#FFFFFFFF1025FFFF
(1626967582.433426) can1 14F00131#FFFFFFFF00FFFFFF
(1626967582.435174) can1 0C0BA027#FDFFFFFFFFFFFF97
(1626967582.438203) can1 18FE4F3E#0400FFFFFFFFFFFF
(1626967582.439893) can1 0CF00400#017D7D000000F07D
(1626967582.440463) can1 10FF2121#32000FC0C0FFFF00
(1626967582.441046) can1 18FEDF00#7D0013FF7D0000FF
(1626967582.441643) can1 18FEEF00#19FFFF00FFFFFFFA
(1626967582.443503) can1 18F0010B#0001F0FFFF0DFFFF
(1626967582.444074) can1 14FEF121#F7FFFF0FFFFFFFFF
(1626967582.446236) can1 14FF3131#4030030000FFFFF0
(1626967582.448823) can1 18FDC40B#FF00FFFFFFFFFFFF
(1626967582.449900) can1 0CF00400#017D7D000000F07D
(1626967582.450477) can1 14FF2321#041DE1FFFFFFFFFF
(1626967582.451053) can1 18FCDC00#E1FEFEFFFFFFFFFF
(1626967582.451817) can1 18FEF117#F7FFFFFFFFFFFFFF
(1626967582.452385) can1 18F0233D#FFFFFFFFFF0CFFFF
(1626967582.452972) can1 18FF2017#0000000000000000
(1626967582.453902) can1 14FEF131#CFFFFFF300FFFF30
(1626967582.456702) can1 0CF00A01#00000000FFFFFFFF
(1626967582.457286) can1 10F01A01#0000FFFFFFFFFFFF
(1626967582.457878) can1 10FCFD01#FFFFFFFF0000FFFF
(1626967582.458483) can1 18FD9401#9407FFFF0000C503
(1626967582.459061) can1 18FDA101#F302FFFFFFFF00FF
(1626967582.459657) can1 10FDA301#FFFFFFFFFFFFFFFF
(1626967582.460251) can1 18FDAA01#FFFFFFFFFFFFFF31
(1626967582.460821) can1 0CF00400#017D7D000000F07D
(1626967582.461404) can1 14FF0121#FFFFFFFFFFFFFCFF
(1626967582.461985) can1 18F0000F#007DFFFF0F7DFFFF
(1626967582.462569) can1 18FDD001#FFFFFF0031FFFFFF
(1626967582.463148) can1 18FF2FA0#DBFF7C03FAFFFFFF
(1626967582.463742) can1 0CF00421#FFFFFFFFFFFFFFFF
(1626967582.464311) can1 1CFE9201#FF0071FFFFFFFFFF
(1626967582.464873) can1 18FEDB01#E900E900E900FFFF
(1626967582.465445) can1 18F00E3D#8890FFFFFFFFFFFF
(1626967582.466025) can1 18F00F3D#8890FFFFFFFFFFFF
(1626967582.466617) can1 18FD8C3D#00000300FFFFFFFF
(1626967582.467200) can1 18FDB23D#FFFF83250000FFFF
(1626967582.467789) can1 18FDB300#FFFF8325FFFFFFFF
(1626967582.468374) can1 18FDB400#83258325FFFFFFFF
(1626967582.469940) can1 0CF00400#017D7D000000F07D
(1626967582.470512) can1 10FE6F2A#FFFF00C0007D00FF
(1626967582.471112) can1 14FF0221#FFFFFFFFFFFFFFFF
(1626967582.471672) can1 0C040B2A#FFFFCCFFFFFFFF59
(1626967582.472250) can1 0CF02FA0#01F9FAFFFFFFFFFF
(1626967582.472845) can1 18FF3000#0000FFFFFFFFFFFF
(1626967582.473709) can1 14FDA421#FFFFFFFFFFFFFFFF
(1626967582.479800) can1 0CF00400#017D7D000000F07D
(1626967582.480381) can1 0CF00300#DD0000FFFFFF00FF
(1626967582.480985) can1 14FFA000#FCFFFFFFFFFFFFFF
(1626967582.481577) can1 18FEF200#000000009503FFFF
(1626967582.482156) can1 18FEF500#C9FFFF0E2544FFFF
(1626967582.483709) can1 14FEF031#FFFFFFFFFFFC00FF
(1626967582.485171) can1 18FE5127#1DFFFFFFFFFFFFFF
(1626967582.485762) can1 0C0BA027#FDFFFFFFFFFFFFA8
(1626967582.489848) can1 0CF00400#017D7D000000F07D
(1626967582.490416) can1 10FF2121#32000FC0C0FFFF00
(1626967582.490994) can1 0C00000B#FCFFFAFAFFFFFFFF
(1626967582.491581) can1 0C0A002A#C1FFFFFFFFFFFFFF
(1626967582.492167) can1 18FEDF00#7D0013FF7D0000FF
(1626967582.499913) can1 0CF00400#017D7D000000F07D
(1626967582.500497) can1 18FEEE00#40402025FFFF44FF
(1626967582.501737) can1 18F0233D#FFFFFFFFFF0CFFFF
(1626967582.502325) can1 18FD413D#FFFFFFFFFCFCFCFC
(1626967582.506689) can1 0CF00A01#00000000FFFFFFFF
(1626967582.507277) can1 10F01A01#0000FFFFFFFFFFFF
(1626967582.509860) can1 0CF00400#017D7D000000F07D
(1626967582.510462) can1 18FEF000#FFFFFFFFFFFFFFFF
(1626967582.511038) can1 18FF2FA0#DBFE7C03FAFFFFFF
(1626967582.511618) can1 18FEA400#FFFFFFFF3E7D2022
(1626967582.512200) can1 0C00100B#FCFFFA00FFFFFFFF
(1626967582.514250) can1 18F00E3D#8890FFFFFFFFFFFF
(1626967582.514830) can1 18F00F3D#8890FFFFFFFFFFFF
(1626967582.517015) can1 0C000F0B#FCFFFA00FFFFFFFF
(1626967582.519858) can1 0CF00400#017D7D000000F07D
(1626967582.520451) can1 14FD3E00#6025FF7C25FFFFFF
(1626967582.521031) can1 0CF02FA0#01F9FAFFFFFFFFFF
(1626967582.521587) can1 18FEE000#1CDD4F001CDD4F00
(1626967582.522319) can1 0C00290B#FCFFFA00FFFFFFFF
(1626967582.523619) can1 14F00031#CFFFFFFFFFFFFFFF
(1626967582.527639) can1 18FEBF0B#00007D7D7D7D7D7D
(1626967582.530070) can1 0CF00400#017D7D000000F07D
(1626967582.530639) can1 0CF00300#DD0000FFFFFF00FF
(1626967582.531256) can1 18FEF100#C700000000001F30
(1626967582.531853) can1 18FEBD00#00F00000FFFFFFFF
(1626967582.533601) can1 14F00131#FFFFFFFF00FFFFFF
(1626967582.535165) can1 0C0BA027#FDFFFFFFFFFFFFB9
(1626967582.538279) can1 18FE4F3E#0400FFFFFFFFFFFF
(1626967582.539869) can1 0CF00400#017D7D000000F07D
(1626967582.540442) can1 10FF2121#32000FC0C0FFFF00
(1626967582.541025) can1 18FEDF00#7D0013FF7D0000FF
(1626967582.541626) can1 18FF7400#D400FFFFFFFCFFFF
(1626967582.543510) can1 14FEF121#F7FFFF0FFFFFFFFF
(1626967582.544091) can1 18F0010B#0001F0FFFF0DFFFF
(1626967582.545254) can1 18FF1919#01030A00FFFFFFFF
(1626967582.546342) can1 14FF3131#4030030000FFFFF0
(1626967582.548887) can1 18FDC40B#FF00FFFFFFFFFFFF
(1626967582.549884) can1 0CF00400#017D7D000000F07D
(1626967582.550459) can1 14FF2321#041DE1FFFFFFFFFF
(1626967582.551027) can1 18FD7C00#F8F3C03430FFE3FF
(1626967582.551607) can1 18FF1B19#FFFCFFFFFFFFFFFF
(1626967582.552183) can1 18F0233D#FFFFFFFFFF0CFFFF
(1626967582.552755) can1 18FEF117#F7FFFFFFFFFFFFFF
(1626967582.553342) can1 18FF2017#0000000000000000
(1626967582.553902) can1 14FEF131#CFFFFFF300FFFF30
(1626967582.556695) can1 0CF00A01#00000000FFFFFFFF
(1626967582.557283) can1 10F01A01#0000FFFFFFFFFFFF
(1626967582.557879) can1 10FCFD01#FFFFFFFF0000FFFF
(1626967582.558482) can1 18FD9401#9407FFFF0000C503
(1626967582.559062) can1 18FDA101#F302FFFFFFFF00FF
(1626967582.559659) can1 10FDA301#FFFFFFFFFFFFFFFF
(1626967582.560250) can1 18FDAA01#FFFFFFFFFFFFFF31
(1626967582.560828) can1 0CF00400#017D7D000000F07D
(1626967582.561411) can1 14FF0121#FFFFFFFFFFFFFCFF
(1626967582.561991) can1 18F0000F#007DFFFF0F7DFFFF
(1626967582.562575) can1 18FDD001#FFFFFF0031FFFFFF
(1626967582.563147) can1 18FEF600#FF004431FF8025FF
(1626967582.563727) can1 0CF00421#FFFFFFFFFFFFFFFF
(1626967582.564312) can1 18FEE400#007FFFFC007FFFFF
(1626967582.564887) can1 18FF2FA0#DBFE7C03FAFFFFFF
(1626967582.565468) can1 1CFE9201#FF0071FFFFFFFFFF
(1626967582.566031) can1 18FEDB01#E900E900E900FFFF
(1626967582.566607) can1 18F00E3D#8890FFFFFFFFFFFF
(1626967582.567200) can1 18F00F3D#8890FFFFFFFFFFFF
(1626967582.567787) can1 18FD8C3D#00000300FFFFFFFF
(1626967582.568368) can1 18FDB23D#FFFF83250000FFFF
(1626967582.568960) can1 18FDB300#FFFF8325FFFFFFFF
(1626967582.569547) can1 18FDB400#83258325FFFFFFFF
(1626967582.570117) can1 0CF00400#017D7D000000F07D
(1626967582.570688) can1 10FE6F2A#FFFF00C0007D00FF
(1626967582.571276) can1 14FF0221#FFFFFFFFFFFFFFFF
(1626967582.571864) can1 0CF02FA0#01F9FAFFFFFFFFFF
(1626967582.572452) can1 18FF3000#0000FFFFFFFFFFFF
(1626967582.573681) can1 14FDA421#FFFFFFFFFFFFFFFF
(1626967582.579816) can1 0CF00400#017D7D000000F07D
(1626967582.580397) can1 0CF00300#DD0000FFFFFF00FF
(1626967582.581004) can1 14FFA000#FCFFFFFFFFFFFFFF
(1626967582.581600) can1 18FEF200#000000009503FFFF
(1626967582.583551) can1 14FEF031#FFFFFFFFFFFC00FF
(1626967582.585164) can1 0C0BA027#FDFFFFFFFFFFFFCA
(1626967582.589860) can1 0CF00400#017D7D000000F07D
(1626967582.590431) can1 10FF2121#32000FC0C0FFFF00
(1626967582.591010) can1 0C00000B#FCFFFAFAFFFFFFFF
(1626967582.591597) can1 0C0A002A#C1FFFFFFFFFFFFFF
(1626967582.592190) can1 18FEDF00#7D0013FF7D0000FF
(1626967582.592777) can1 18FE5600#AB40FFFF1F1F00FF
(1626967582.599914) can1 0CF00400#017D7D000000F07D
(1626967582.600493) can1 18FEC100#B997CC07B997CC07
(1626967582.601745) can1 18F0233D#FFFFFFFFFF0CFFFF
(1626967582.602333) can1 18FD413D#FFFFFFFFFCFCFCFC
(1626967582.606689) can1 0CF00A01#00000000FFFFFFFF
(1626967582.607277) can1 10F01A01#0000FFFFFFFFFFFF
(1626967582.609861) can1 0CF00400#017D7D000000F07D
(1626967582.610461) can1 18FEF000#FFFFFFFFFFFFFFFF
(1626967582.611041) can1 18FF2FA0#DB017D03FAFFFFFF
(1626967582.611625) can1 18FEF700#FFFFFFFFF400F400
(1626967582.614257) can1 18F00E3D#8890FFFFFFFFFFFF
(1626967582.614833) can1 18F00F3D#8890FFFFFFFFFFFF
(1626967582.619837) can1 0CF00400#017D7D000000F07D
(1626967582.620413) can1 0CF02FA0#01F9FAFFFFFFFFFF
(1626967582.620969) can1 18FEE000#1CDD4F001CDD4F00
(1626967582.623393) can1 14F00031#CFFFFFFFFFFFFFFF
(1626967582.627702) can1 18FEBF0B#00007D7D7D7D7D7D
(1626967582.630067) can1 0CF00400#017D7D000000F07D
(1626967582.630656) can1 0CF00300#DD0000FFFFFF00FF
(1626967582.631250) can1 18FEF100#C700000000001F30
(1626967582.633388) can1 14F00131#FFFFFFFF00FFFFFF
(1626967582.635155) can1 0C0BA027#FDFFFFFFFFFFFFEB
(1626967582.638331) can1 18FE4F3E#0400FFFFFFFFFFFF
(1626967582.639876) can1 0CF00400#017D7D000000F07D
(1626967582.640448) can1 10FF2121#32000FC0C0FFFF00
(1626967582.641032) can1 18FEDF00#7D0013FF7D0000FF
(1626967582.643556) can1 14FEF121#F7FFFF0FFFFFFFFF
(1626967582.644138) can1 18F0010B#0001F0FFFF0DFFFF
(1626967582.646220) can1 14FF3131#4030030000FFFFF0
(1626967582.648953) can1 18FDC40B#FF00FFFFFFFFFFFF
(1626967582.649873) can1 0CF00400#017D7D000000F07D
(1626967582.650449) can1 14FF2321#041DE1FFFFFFFFFF
(1626967582.651704) can1 18FEF117#F7FFFFFFFFFFFFFF
(1626967582.652276) can1 18F0233D#FFFFFFFFFF0CFFFF
(1626967582.652864) can1 18FF2017#0000000000000000
(1626967582.653468) can1 14FEF131#CFFFFFF300FFFF30
(1626967582.656717) can1 0CF00A01#00000000FFFFFFFF
(1626967582.657290) can1 10F01A01#0000FFFFFFFFFFFF
(1626967582.657885) can1 18FECA01#03FF00000000FFFF
(1626967582.658505) can1 10FCFD01#FFFFFFFF0000FFFF
(1626967582.659081) can1 18FD9401#9407FFFF0000C503
(1626967582.659661) can1 18FDA101#F302FFFFFFFF00FF
(1626967582.660293) can1 10FDA301#FFFFFFFFFFFFFFFF
(1626967582.660865) can1 0CF00400#017D7D000000F07D
(1626967582.661450) can1 14FF0121#FFFFFFFFFFFFFCFF
(1626967582.662029) can1 18F0000F#007DFFFF0F7DFFFF
(1626967582.662605) can1 18FDAA01#FFFFFFFFFFFFFF31
(1626967582.663177) can1 18FF2FA0#DB007D03FAFFFFFF
(1626967582.663761) can1 18FDD001#FFFFFF0031FFFFFF
(1626967582.664341) can1 0CF00421#FFFFFFFFFFFFFFFF
(1626967582.664921) can1 1CFE9201#FF0071FFFFFFFFFF
(1626967582.665485) can1 18FEDB01#E900E900E900FFFF
(1626967582.666069) can1 18FD6501#6702FFFFFFFFFFFF
(1626967582.666657) can1 18FD6601#FF40FFFFFFFFFFFF
(1626967582.667269) can1 18FE6901#95252A25FFFF2125
(1626967582.667873) can1 18FE9701#FFFFFFFFFFFFFFFF
(1626967582.668465) can1 18FE9801#6027FFFFFFFFFFFF
(1626967582.669072) can1 18FE9901#007DFFFFFFFFFFFF
(1626967582.669658) can1 18FE9A01#201DFFFFFFFFFFFF
(1626967582.670251) can1 18FEDD01#FF0000FFFFFFFFFF
(1626967582.670826) can1 0CF00400#017D7D000000F07D
(1626967582.671398) can1 10FE6F2A#FFFF00C0007D00FF
(1626967582.671996) can1 14FF0221#FFFFFFFFFFFFFFFF
(1626967582.672558) can1 0C040B2A#FFFFCCFFFFFFFF6A
(1626967582.673138) can1 0CF02FA0#01F9FAFFFFFFFFFF
(1626967582.673721) can1 14FDA421#FFFFFFFFFFFFFFFF
(1626967582.674285) can1 18F00E3D#8890FFFFFFFFFFFF
(1626967582.674882) can1 18FF3000#0000FFFFFFFFFFFF
(1626967582.675453) can1 18F00F3D#8890FFFFFFFFFFFF
(1626967582.676029) can1 18FFAA01#0000B8049C7D9561
(1626967582.676614) can1 18FECA3D#03FF00000000FFFF
(1626967582.677189) can1 18FFAB01#1C1708007D00F401
(1626967582.677782) can1 18FD8C3D#00000300FFFFFFFF
(1626967582.678365) can1 18FDB23D#FFFF83250000FFFF
(1626967582.678945) can1 18FFAC01#000000190F00F0FF
(1626967582.679534) can1 18FDB300#FFFF8325FFFFFFFF
(1626967582.680115) can1 0CF00400#017D7D000000F07D
(1626967582.680694) can1 18FFAD01#0C00FFFFFFFFFFFF
(1626967582.681266) can1 0CF00300#DD0000FFFFFF00FF
(1626967582.681839) can1 18FDB400#83258325FFFFFFFF
(1626967582.682431) can1 14FFA000#FCFFFFFFFFFFFFFF
(1626967582.683016) can1 18FFAE01#00FF00000000FFFF
(1626967582.683596) can1 18FEF200#000000009503FFFF
(1626967582.684183) can1 14FEF031#FFFFFFFFFFFC00FF
(1626967582.684763) can1 18FFA63D#00FF00000000FFFF
(1626967582.685351) can1 0C0BA027#FDFFFFFFFFFFFFFC
(1626967582.685935) can1 18FECA0B#00FF00000000FFFF
(1626967582.689844) can1 0CF00400#017D7D000000F07D
(1626967582.690406) can1 10FF2121#32000FC0C0FFFF00
(1626967582.690984) can1 0C00000B#FCFFFAFAFFFFFFFF
(1626967582.691574) can1 0C0A002A#C1FFFFFFFFFFFFFF
(1626967582.692160) can1 18FEDF00#7D0013FF7D0000FF
(1626967582.692738) can1 18FD9B3D#FFFFFFFFFFFFFFFF
(1626967582.693301) can1 18FF2221#0300C31501F7FFFF
(1626967582.699911) can1 0CF00400#017D7D000000F07D
(1626967582.701737) can1 18F0233D#FFFFFFFFFF0CFFFF
(1626967582.702324) can1 18FD413D#FFFFFFFFFCFCFCFC
(1626967582.706688) can1 0CF00A01#00000000FFFFFFFF
(1626967582.707276) can1 10F01A01#0000FFFFFFFFFFFF
(1626967582.709872) can1 0CF00400#017D7D000000F07D
(1626967582.710473) can1 18FEF000#FFFFFFFFFFFFFFFF
(1626967582.711044) can1 18FF2FA0#DB007D03FAFFFFFF
(1626967582.711830) can1 0C00100B#FCFFFA00FFFFFFFF
(1626967582.712377) can1 18FFA53D#000A511B7F256A25
(1626967582.714249) can1 18F00E3D#8890FFFFFFFFFFFF
(1626967582.714829) can1 18F00F3D#8890FFFFFFFFFFFF
(1626967582.717146) can1 0C000F0B#FCFFFA00FFFFFFFF
(1626967582.719873) can1 0CF00400#017D7D000000F07D
(1626967582.720441) can1 18FEE000#1CDD4F001CDD4F00
(1626967582.721022) can1 0CF02FA0#01F9FAFFFFFFFFFF
(1626967582.722442) can1 0C00290B#FCFFFA00FFFFFFFF
(1626967582.723554) can1 14F00031#CFFFFFFFFFFFFFFF
(1626967582.724270) can1 18E00021#FFFFFFFFFFFFFFFF
(1626967582.727762) can1 18FEBF0B#00007D7D7D7D7D7D
(1626967582.730130) can1 0CF00400#017D7D000000F07D
(1626967582.730719) can1 0CF00300#DD0000FFFFFF00FF
(1626967582.731307) can1 18FEF100#C700000000001F30
(1626967582.731922) can1 18FD0700#0300003FFCFFFFFF
(1626967582.733459) can1 14F00131#FFFFFFFF00FFFFFF
(1626967582.735155) can1 18FE5127#1DFFFFFFFFFFFFFF
(1626967582.735738) can1 0C0BA027#FDFFFFFFFFFFFF0D
(1626967582.738400) can1 18FE4F3E#0400FFFFFFFFFFFF
(1626967582.739928) can1 0CF00400#017D7D000000F07D
(1626967582.740501) can1 10FF2121#32000FC0C0FFFF00
(1626967582.741084) can1 18FEDF00#7D0013FF7D0000FF
(1626967582.743632) can1 10FECA47#00FF00000000FFFF
(1626967582.744212) can1 18F0010B#0001F0FFFF0DFFFF
(1626967582.744777) can1 14FEF121#F7FFFF0FFFFFFFFF
(1626967582.746417) can1 14FF3131#4030030000FFFFF0
(1626967582.749016) can1 18FDC40B#FF00FFFFFFFFFFFF
(1626967582.749889) can1 0CF00400#017D7D000000F07D
(1626967582.750465) can1 14FF2321#041DE1FFFFFFFFFF
(1626967582.752164) can1 18F0233D#FFFFFFFFFF0CFFFF
(1626967582.753425) can1 10FECA31#00FF00000000FFFF
(1626967582.754105) can1 14FEF131#CFFFFFF300FFFF30
(1626967582.755104) can1 18EA0017#E5FE00
(1626967582.755676) can1 18FEC117#FC11CC07FFFFFFFF
(1626967582.756256) can1 18FD0517#03033FFFFFFFFFFF
(1626967582.756846) can1 0CF00A01#00000000FFFFFFFF
(1626967582.757413) can1 18FEF717#FFFFFFFFF600FFFF
(1626967582.757990) can1 10F01A01#0000FFFFFFFFFFFF
(1626967582.758561) can1 18FEFA17#FF2121FFFFFFFFFF
(1626967582.759145) can1 10FCFD01#FFFFFFFF0000FFFF
(1626967582.759721) can1 18FF1817#001000400000FEFF
(1626967582.760308) can1 14FF0121#FFFFFFFFFFFFFCFF
(1626967582.760870) can1 18FD9401#9407FFFF0000C503
(1626967582.761446) can1 0CF00400#017D7D000000F07D
(1626967582.762013) can1 18FDA101#F302FFFFFFFF00FF
(1626967582.762593) can1 18F0000F#007DFFFF0F7DFFFF
(1626967582.763177) can1 10FDA301#FFFFFFFFFFFFFFFF
(1626967582.763757) can1 0CF00421#FFFFFFFFFFFFFFFF
(1626967582.764336) can1 18FDAA01#FFFFFFFFFFFFFF31
(1626967582.764911) can1 10FECA21#00FF00000000FFFF
(1626967582.765493) can1 18FDD001#FFFFFF0031FFFFFF
(1626967582.766061) can1 18FEE500#2E050500BFF30D00
(1626967582.766634) can1 18FF1917#00FFFFFF400000E1
(1626967582.767208) can1 18FECA17#00FF00000000FFFF
(1626967582.767789) can1 18FEFC17#FF3AFFFFFFFFFFFF
(1626967582.768365) can1 18FEF117#F7FFFFFFFFFFFFFF
(1626967582.768953) can1 18FF2017#0000000000000000
(1626967582.769537) can1 18FD0417#D0FFFFFFFFFFFFFF
(1626967582.770117) can1 18E0FF17#FFFFFF3FFFFFFFFF
(1626967582.770692) can1 0CF00400#017D7D000000F07D
(1626967582.771281) can1 14FF0221#FFFFFFFFFFFFFFFF
(1626967582.771856) can1 18FF2FA0#DB007D03FAFFFFFF
(1626967582.772449) can1 18FF3000#0000FFFFFFFFFFFF
(1626967582.773029) can1 0CF02FA0#01F9FAFFFFFFFFFF
(1626967582.773609) can1 1CFE9201#FF0071FFFFFFFFFF
(1626967582.774181) can1 10FE6F2A#FFFF00C0007D00FF
(1626967582.774765) can1 14FDA421#FFFFFFFFFFFFFFFF
(1626967582.775321) can1 18FEDB01#E900E900E900FFFF
(1626967582.775905) can1 1CFEC347#FFFFFFFFFFFFFFFF
(1626967582.776477) can1 18FD3C3D#0000FFFFFFFCFFFF
(1626967582.777053) can1 18F00E3D#8890FFFFFFFFFFFF
(1626967582.777637) can1 18F00F3D#8890FFFFFFFFFFFF
(1626967582.778229) can1 18FD8C3D#00000300FFFFFFFF
(1626967582.778813) can1 18FDB23D#FFFF83250000FFFF
(1626967582.779401) can1 18FDB300#FFFF8325FFFFFFFF
(1626967582.779982) can1 0CF00400#017D7D000000F07D
(1626967582.780549) can1 18FDB400#83258325FFFFFFFF
(1626967582.781121) can1 0CF00300#DD0000FFFFFF00FF
(1626967582.781725) can1 14FFA000#FCFFFFFFFFFFFFFF
(1626967582.782321) can1 18FEF200#000000009503FFFF
(1626967582.782893) can1 18FFA33D#0000EF058010FFFF
(1626967582.783761) can1 14FEF031#FFFFFFFFFFFC00FF
(1626967582.785248) can1 0C0BA027#FDFFFFFFFFFFFF1E
(1626967582.789868) can1 0CF00400#017D7D000000F07D
(1626967582.790440) can1 10FF2121#32000FC0C0FFFF00
(1626967582.791017) can1 0C00000B#FCFFFAFAFFFFFFFF
(1626967582.791606) can1 0C0A002A#C1FFFFFFFFFFFFFF
(1626967582.792189) can1 18FEDF00#7D0013FF7D0000FF
(1626967582.792751) can1 18FFA43D#D606D6060000FCFF
(1626967582.793778) can1 18FF2421#BFF0FCFFFFFFFFFF
(1626967582.799957) can1 0CF00400#017D7D000000F07D
(1626967582.801779) can1 18F0233D#FFFFFFFFFF0CFFFF
(1626967582.802367) can1 18FD413D#FFFFFFFFFCFCFCFC
(1626967582.802938) can1 18FFA23D#0000DF1AE8031810
(1626967582.803522) can1 10FECA25#00FF00000000FFFF
(1626967582.806687) can1 0CF00A01#00000000FFFFFFFF
(1626967582.807275) can1 10F01A01#0000FFFFFFFFFFFF
(1626967582.809951) can1 0CF00400#017D7D000000F07D
(1626967582.810551) can1 18FEF000#FFFFFFFFFFFFFFFF
(1626967582.811131) can1 18FF2FA0#DB017D03FAFFFFFF
(1626967582.812452) can1 18FFA03D#1A0D1A0019001AFF
(1626967582.813618) can1 18FEF521#FFFFFFFFFFFFFFFF
(1626967582.814267) can1 18F00E3D#8890FFFFFFFFFFFF
(1626967582.814832) can1 18F00F3D#8890FFFFFFFFFFFF
(1626967582.819909) can1 0CF00400#017D7D000000F07D
(1626967582.820483) can1 0CF02FA0#01F9FAFFFFFFFFFF
(1626967582.821039) can1 18FEE000#1CDD4F001CDD4F00
(1626967582.821614) can1 18FECA2A#00FF00000000FFFF
(1626967582.822391) can1 18FFA13D#9E029E021A000000
(1626967582.823599) can1 14F00031#CFFFFFFFFFFFFFFF
(1626967582.827833) can1 18FEBF0B#00007D7D7D7D7D7D
(1626967582.830071) can1 0CF00400#017D7D000000F07D
(1626967582.830657) can1 0CF00300#DD0000FFFFFF00FF
(1626967582.831249) can1 18FEF100#C700000000001F30
(1626967582.831835) can1 18FECAA0#00FF00000000FFFF
(1626967582.833581) can1 14F00131#FFFFFFFF00FFFFFF
(1626967582.835157) can1 0C0BA027#FDFFFFFFFFFFFF2F
(1626967582.838476) can1 18FE4F3E#0400FFFFFFFFFFFF
(1626967582.839872) can1 0CF00400#017D7D000000F07D
(1626967582.840441) can1 10FF2121#32000FC0C0FFFF00
(1626967582.841025) can1 18FEDF00#7D0013FF7D0000FF
(1626967582.843493) can1 14FEF121#F7FFFF0FFFFFFFFF
(1626967582.844071) can1 18F0010B#0001F0FFFF0DFFFF
(1626967582.846167) can1 14FF3131#4030030000FFFFF0
(1626967582.849089) can1 18FDC40B#FF00FFFFFFFFFFFF
(1626967582.849891) can1 0CF00400#017D7D000000F07D
(1626967582.850466) can1 14FF2321#041DE1FFFFFFFFFF
(1626967582.852147) can1 18FEF117#F7FFFFFFFFFFFFFF
(1626967582.852715) can1 18F0233D#FFFFFFFFFF0CFFFF
(1626967582.853303) can1 18FF2017#0000000000000000
(1626967582.853863) can1 14FEF131#CFFFFFF300FFFF30
(1626967582.856703) can1 0CF00A01#00000000FFFFFFFF
(1626967582.857291) can1 10F01A01#0000FFFFFFFFFFFF
(1626967582.857887) can1 10FCFD01#FFFFFFFF0000FFFF
(1626967582.858483) can1 18FD9401#9407FFFF0000C503
(1626967582.859063) can1 18FDA101#F302FFFFFFFF00FF
(1626967582.859659) can1 10FDA301#FFFFFFFFFFFFFFFF
(1626967582.860250) can1 18FDAA01#FFFFFFFFFFFFFF31
(1626967582.860822) can1 0CF00400#017D7D000000F07D
(1626967582.861406) can1 14FF0121#FFFFFFFFFFFFFCFF
(1626967582.861987) can1 18F0000F#007DFFFF0F7DFFFF
(1626967582.862571) can1 18FDD001#FFFFFF0031FFFFFF
(1626967582.863150) can1 18FF2FA0#DB017D03FAFFFFFF
(1626967582.863730) can1 0CF00421#FFFFFFFFFFFFFFFF
(1626967582.864311) can1 1CFE9201#FF0071FFFFFFFFFF
(1626967582.864876) can1 18FEDB01#E900E900E900FFFF
(1626967582.865447) can1 18F00E3D#8890FFFFFFFFFFFF
(1626967582.866027) can1 18F00F3D#8890FFFFFFFFFFFF
(1626967582.866620) can1 18FD8C3D#00000300FFFFFFFF
(1626967582.867204) can1 18FDB23D#FFFF83250000FFFF
(1626967582.867797) can1 18FDB300#FFFF8325FFFFFFFF
(1626967582.868374) can1 18FDB400#83258325FFFFFFFF
(1626967582.869958) can1 0CF00400#017D7D000000F07D
(1626967582.870530) can1 10FE6F2A#FFFF00C0007D00FF
(1626967582.871119) can1 14FF0221#FFFFFFFFFFFFFFFF
(1626967582.871691) can1 0C040B2A#FFFFCCFFFFFFFF7B
(1626967582.872292) can1 18FF3000#0000FFFFFFFFFFFF
(1626967582.872867) can1 0CF02FA0#01F9FAFFFFFFFFFF
(1626967582.873503) can1 14FDA421#FFFFFFFFFFFFFFFF
(1626967582.876183) can1 18A9FE31#FFFFFFFFFFFFFFFF
(1626967582.879823) can1 0CF00400#017D7D000000F07D
(1626967582.880426) can1 0CF00300#DD0000FFFFFF00FF
(1626967582.881018) can1 14FFA000#FCFFFFFFFFFFFFFF
(1626967582.881609) can1 18FEF200#000000009503FFFF
(1626967582.883536) can1 14FEF031#FFFFFFFFFFFC00FF
(1626967582.885164) can1 0C0BA027#FDFFFFFFFFFFFF20
(1626967582.889836) can1 0CF00400#017D7D000000F07D
(1626967582.890404) can1 10FF2121#32000FC0C0FFFF00
(1626967582.890984) can1 0C00000B#FCFFFAFAFFFFFFFF
(1626967582.891572) can1 0C0A002A#C1FFFFFFFFFFFFFF
(1626967582.892168) can1 18FEDF00#7D0013FF7D0000FF
(1626967582.893595) can1 18FEF621#FFFFFFFFFFFFFFFF
(1626967582.899915) can1 0CF00400#017D7D000000F07D
(1626967582.901738) can1 18F0233D#FFFFFFFFFF0CFFFF
(1626967582.902327) can1 18FD413D#FFFFFFFFFCFCFCFC
(1626967582.903558) can1 18FEF721#FFFFFFFFF300FFFF
(1626967582.906691) can1 0CF00A01#00000000FFFFFFFF
(1626967582.907278) can1 10F01A01#0000FFFFFFFFFFFF
(1626967582.909858) can1 0CF00400#017D7D000000F07D
(1626967582.910458) can1 18FEF000#FFFFFFFFFFFFFFFF
(1626967582.911029) can1 18FF2FA0#DB007D03FAFFFFFF
(1626967582.911960) can1 0C00100B#FCFFFA00FFFFFFFF
(1626967582.913461) can1 18E00031#FFFFFFFFFFF3FFFF
(1626967582.914254) can1 18F00E3D#8890FFFFFFFFFFFF
(1626967582.914834) can1 18F00F3D#8890FFFFFFFFFFFF
(1626967582.917274) can1 0C000F0B#FCFFFA00FFFFFFFF
(1626967582.919857) can1 0CF00400#017D7D000000F07D
(1626967582.920426) can1 18FEE000#1CDD4F001CDD4F00
(1626967582.921007) can1 0CF02FA0#01F9FAFFFFFFFFFF
(1626967582.922575) can1 0C00290B#FCFFFA00FFFFFFFF
(1626967582.923562) can1 14F00031#CFFFFFFFFFFFFFFF
(1626967582.927900) can1 18FEBF0B#00007D7D7D7D7D7D
(1626967582.930072) can1 0CF00400#017D7D000000F07D
(1626967582.930660) can1 0CF00300#DD0000FFFFFF00FF
(1626967582.931248) can1 18FEF100#C700000000001F30
(1626967582.933443) can1 14F00131#FFFFFFFF00FFFFFF
(1626967582.935140) can1 0C0BA027#FDFFFFFFFFFFFF31
(1626967582.938539) can1 18FE4F3E#0400FFFFFFFFFFFF
(1626967582.939875) can1 0CF00400#017D7D000000F07D
(1626967582.940445) can1 10FF2121#32000FC0C0FFFF00
(1626967582.941029) can1 18FEDF00#7D0013FF7D0000FF
(1626967582.941625) can1 18FEEF00#19FFFF00FFFFFFFA
(1626967582.943620) can1 14FEF121#F7FFFF0FFFFFFFFF
(1626967582.944201) can1 18F0010B#0001F0FFFF0DFFFF
(1626967582.946157) can1 14FF3131#4030030000FFFFF0
(1626967582.949148) can1 18FDC40B#FF00FFFFFFFFFFFF
(1626967582.949880) can1 0CF00400#017D7D000000F07D
(1626967582.950455) can1 14FF2321#041DE1FFFFFFFFFF
(1626967582.951755) can1 18FEF117#F7FFFFFFFFFFFFFF
(1626967582.952328) can1 18F0233D#FFFFFFFFFF0CFFFF
(1626967582.952915) can1 18FF2017#0000000000000000
(1626967582.953695) can1 14FEF131#CFFFFFF300FFFF30
(1626967582.956696) can1 0CF00A01#00000000FFFFFFFF
(1626967582.957299) can1 10F01A01#0000FFFFFFFFFFFF
(1626967582.957881) can1 10FCFD01#FFFFFFFF0000FFFF
(1626967582.958479) can1 18FD9401#9407FFFF0000C503
(1626967582.959058) can1 18FDA101#F302FFFFFFFF00FF
(1626967582.959654) can1 10FDA301#FFFFFFFFFFFFFFFF
(1626967582.960251) can1 18FDAA01#FFFFFFFFFFFFFF31
(1626967582.960823) can1 0CF00400#017D7D000000F07D
(1626967582.961407) can1 14FF0121#FFFFFFFFFFFFFCFF
(1626967582.961987) can1 18F0000F#007DFFFF0F7DFFFF
(1626967582.962571) can1 18FDD001#FFFFFF0031FFFFFF
(1626967582.963143) can1 18FF2FA0#DB007D03FAFFFFFF
(1626967582.963723) can1 1CFE9201#FF0071FFFFFFFFFF
(1626967582.964304) can1 0CF00421#FFFFFFFFFFFFFFFF
(1626967582.964860) can1 18FEDB01#E900E900E900FFFF
(1626967582.965432) can1 18F00E3D#8890FFFFFFFFFFFF
(1626967582.966013) can1 18F00F3D#8890FFFFFFFFFFFF
(1626967582.966620) can1 18FD8C3D#00000300FFFFFFFF
(1626967582.967205) can1 18FDB23D#FFFF83250000FFFF
(1626967582.967797) can1 18FDB300#FFFF8325FFFFFFFF
(1626967582.968377) can1 18FDB400#83258325FFFFFFFF
(1626967582.969929) can1 0CF00400#017D7D000000F07D
(1626967582.970501) can1 10FE6F2A#FFFF00C0007D00FF
(1626967582.971089) can1 14FF0221#FFFFFFFFFFFFFFFF
(1626967582.971669) can1 0CF02FA0#01F9FAFFFFFFFFFF
(1626967582.972269) can1 18FF3000#0000FFFFFFFFFFFF
(1626967582.973469) can1 14FDA421#FFFFFFFFFFFFFFFF
(1626967582.979797) can1 0CF00400#017D7D000000F07D
(1626967582.980380) can1 0CF00300#DD0000FFFFFF00FF
(1626967582.980985) can1 14FFA000#FCFFFFFFFFFFFFFF
(1626967582.981577) can1 18FEF200#000000009503FFFF
(1626967582.983537) can1 14FEF031#FFFFFFFFFFFC00FF
(1626967582.985141) can1 18FE5127#1DFFFFFFFFFFFFFF
(1626967582.985726) can1 0C0BA027#FDFFFFFFFFFFFF42
(1626967582.989846) can1 0CF00400#017D7D000000F07D
(1626967582.990413) can1 10FF2121#32000FC0C0FFFF00
(1626967582.990993) can1 0C00000B#FCFFFAFAFFFFFFFF
(1626967582.991581) can1 0C0A002A#C1FFFFFFFFFFFFFF
(1626967582.992168) can1 18FEDF00#7D0013FF7D0000FF
(1626967582.999927) can1 0CF00400#017D7D000000F07D
(1626967583.001752) can1 18F0233D#FFFFFFFFFF0CFFFF
(1626967583.002340) can1 18FD413D#FFFFFFFFFCFCFCFC
(1626967583.006708) can1 0CF00A01#00000000FFFFFFFF
(1626967583.007284) can1 10F01A01#0000FFFFFFFFFFFF
(1626967583.009883) can1 0CF00400#017D7D000000F07D
(1626967583.010479) can1 18FEF000#FFFFFFFFFFFFFFFF
(1626967583.011055) can1 18FF2FA0#DBFE7C03FAFFFFFF
(1626967583.014259) can1 18F00E3D#8890FFFFFFFFFFFF
(1626967583.014835) can1 18F00F3D#8890FFFFFFFFFFFF
(1626967583.019828) can1 0CF00400#017D7D000000F07D
(1626967583.020414) can1 14FD3E00#7025FF7C25FFFFFF
(1626967583.020994) can1 0CF02FA0#01F9FAFFFFFFFFFF
(1626967583.021550) can1 18FEE000#1CDD4F001CDD4F00
(1626967583.023519) can1 14F00031#CFFFFFFFFFFFFFFF
(1626967583.027964) can1 18FEBF0B#00007D7D7D7D7D7D
(1626967583.030071) can1 0CF00400#017D7D000000F07D
(1626967583.030659) can1 0CF00300#DD0000FFFFFF00FF
(1626967583.031248) can1 18FEF100#C700000000001F30
(1626967583.033395) can1 14F00131#FFFFFFFF00FFFFFF
(1626967583.035139) can1 0C0BA027#FDFFFFFFFFFFFF53
(1626967583.038600) can1 18FE4F3E#0400FFFFFFFFFFFF
(1626967583.039874) can1 0CF00400#017D7D000000F07D
(1626967583.040444) can1 10FF2121#32000FC0C0FFFF00
(1626967583.041028) can1 18FEDF00#7D0013FF7D0000FF
(1626967583.043549) can1 14FEF121#F7FFFF0FFFFFFFFF
(1626967583.044125) can1 18F0010B#0001F0FFFF0DFFFF
(1626967583.045213) can1 18FF1919#01030A00FFFFFFFF
(1626967583.046376) can1 14FF3131#4030030000FFFFF0
(1626967583.049217) can1 18FDC40B#FF00FFFFFFFFFFFF
(1626967583.049879) can1 0CF00400#017D7D000000F07D
(1626967583.050453) can1 14FF2321#041DE1FFFFFFFFFF
(1626967583.051033) can1 18FF1B19#FFFCFFFFFFFFFFFF
(1626967583.051974) can1 18FEF117#F7FFFFFFFFFFFFFF
(1626967583.052538) can1 18F0233D#FFFFFFFFFF0CFFFF
(1626967583.053125) can1 18FF2017#0000000000000000
(1626967583.053705) can1 14FEF131#CFFFFFF300FFFF30
(1626967583.055153) can1 18E00019#00FFFFFFFFFFFFFF
(1626967583.056695) can1 0CF00A01#00000000FFFFFFFF
(1626967583.057286) can1 10F01A01#0000FFFFFFFFFFFF
(1626967583.057882) can1 10FCFD01#FFFFFFFF0000FFFF
(1626967583.058477) can1 18FD9401#9407FFFF0000C503
(1626967583.059057) can1 18FDA101#F302FFFFFFFF00FF
(1626967583.059653) can1 10FDA301#FFFFFFFFFFFFFFFF
(1626967583.060245) can1 18FDAA01#FFFFFFFFFFFFFF31
(1626967583.060822) can1 0CF00400#017D7D000000F07D
(1626967583.061405) can1 14FF0121#FFFFFFFFFFFFFCFF
(1626967583.061986) can1 18F0000F#007DFFFF0F7DFFFF
(1626967583.062569) can1 18FDD001#FFFFFF0031FFFFFF
(1626967583.063141) can1 18FEF600#FF004431FF8025FF
(1626967583.063718) can1 18FEF719#FFFFFFFFFFFFF400
(1626967583.064296) can1 0CF00421#FFFFFFFFFFFFFFFF
(1626967583.064874) can1 18FF2FA0#DBFE7C03FAFFFFFF
(1626967583.065453) can1 1CFE9201#FF0071FFFFFFFFFF
(1626967583.066018) can1 18FEDB01#E900E900E900FFFF
(1626967583.066597) can1 18F00E3D#8890FFFFFFFFFFFF
(1626967583.067181) can1 18F00F3D#8890FFFFFFFFFFFF
(1626967583.067773) can1 18FD8C3D#00000300FFFFFFFF
(1626967583.068358) can1 18FDB23D#FFFF83250000FFFF
(1626967583.068945) can1 18FDB300#FFFF8325FFFFFFFF
(1626967583.069530) can1 18FDB400#83258325FFFFFFFF
(1626967583.070105) can1 0CF00400#017D7D000000F07D
(1626967583.070695) can1 10FE6F2A#FFFF00C0007D00FF
(1626967583.071269) can1 14FF0221#FFFFFFFFFFFFFFFF
(1626967583.071842) can1 0C040B2A#FFFFCCFFFFFFFF8C
(1626967583.072434) can1 18FF3000#0000FFFFFFFFFFFF
(1626967583.073014) can1 0CF02FA0#01F9FAFFFFFFFFFF
(1626967583.073842) can1 14FDA421#FFFFFFFFFFFFFFFF
(1626967583.079789) can1 0CF00400#017D7D000000F07D
(1626967583.080376) can1 0CF00300#DD0000FFFFFF00FF
(1626967583.080983) can1 14FFA000#FCFFFFFFFFFFFFFF
(1626967583.081574) can1 18FEF200#000000009503FFFF
(1626967583.083534) can1 14FEF031#FFFFFFFFFFFC00FF
(1626967583.085151) can1 0C0BA027#FDFFFFFFFFFFFF64
(1626967583.089830) can1 0CF00400#017D7D000000F07D
(1626967583.090398) can1 10FF2121#32000FC0C0FFFF00
(1626967583.090979) can1 0C00000B#FCFFFAFAFFFFFFFF
(1626967583.091567) can1 0C0A002A#C1FFFFFFFFFFFFFF
(1626967583.092153) can1 18FEDF00#7D0013FF7D0000FF
(1626967583.099909) can1 0CF00400#017D7D000000F07D
(1626967583.101745) can1 18F0233D#FFFFFFFFFF0CFFFF
(1626967583.102332) can1 18FD413D#FFFFFFFFFCFCFCFC
(1626967583.106692) can1 0CF00A01#00000000FFFFFFFF
(1626967583.107276) can1 10F01A01#0000FFFFFFFFFFFF
(1626967583.109857) can1 0CF00400#017D7D000000F07D
(1626967583.110455) can1 18FEF000#FFFFFFFFFFFFFFFF
(1626967583.111031) can1 18FF2FA0#DBFE7C03FAFFFFFF
(1626967583.112097) can1 0C00100B#FCFFFA00FFFFFFFF
(1626967583.114252) can1 18F00E3D#8890FFFFFFFFFFFF
(1626967583.114832) can1 18F00F3D#8890FFFFFFFFFFFF
(1626967583.117408) can1 0C000F0B#FCFFFA00FFFFFFFF
(1626967583.119846) can1 0CF00400#017D7D000000F07D
(1626967583.120415) can1 18FEE000#1CDD4F001CDD4F00
(1626967583.120998) can1 0CF02FA0#01F9FAFFFFFFFFFF
(1626967583.122713) can1 0C00290B#FCFFFA00FFFFFFFF
(1626967583.123604) can1 14F00031#CFFFFFFFFFFFFFFF
(1626967583.128025) can1 18FEBF0B#00007D7D7D7D7D7D
(1626967583.130067) can1 0CF00400#017D7D000000F07D
(1626967583.130653) can1 0CF00300#DD0000FFFFFF00FF
(1626967583.131246) can1 18FEF100#C700000000001F30
(1626967583.133438) can1 14F00131#FFFFFFFF00FFFFFF
(1626967583.135128) can1 0C0BA027#FDFFFFFFFFFFFF75
(1626967583.138668) can1 18FE4F3E#0400FFFFFFFFFFFF
(1626967583.139892) can1 0CF00400#017D7D000000F07D
(1626967583.140463) can1 10FF2121#32000FC0C0FFFF00
(1626967583.141058) can1 18FEDF00#7D0013FF7D0000FF
(1626967583.143543) can1 14FEF121#F7FFFF0FFFFFFFFF
(1626967583.144126) can1 18F0010B#0001F0FFFF0DFFFF
(1626967583.146300) can1 14FF3131#4030030000FFFFF0
(1626967583.149281) can1 18FDC40B#FF00FFFFFFFFFFFF
(1626967583.149896) can1 0CF00400#017D7D000000F07D
(1626967583.150472) can1 14FF2321#041DE1FFFFFFFFFF
(1626967583.151775) can1 18FEF117#F7FFFFFFFFFFFFFF
(1626967583.152348) can1 18F0233D#FFFFFFFFFF0CFFFF
(1626967583.152936) can1 18FF2017#0000000000000000
(1626967583.153744) can1 14FEF131#CFFFFFF300FFFF30
(1626967583.156693) can1 0CF00A01#00000000FFFFFFFF
(1626967583.157285) can1 10F01A01#0000FFFFFFFFFFFF
(1626967583.157880) can1 10FCFD01#FFFFFFFF0000FFFF
(1626967583.158484) can1 18FD9401#9407FFFF0000C503
(1626967583.159064) can1 18FDA101#F302FFFFFFFF00FF
(1626967583.159660) can1 10FDA301#FFFFFFFFFFFFFFFF
(1626967583.160254) can1 18FDAA01#FFFFFFFFFFFFFF31
(1626967583.160824) can1 0CF00400#017D7D000000F07D
(1626967583.161408) can1 14FF0121#FFFFFFFFFFFFFCFF
(1626967583.161988) can1 18F0000F#007DFFFF0F7DFFFF
(1626967583.162573) can1 18FDD001#FFFFFF0031FFFFFF
(1626967583.163149) can1 18FF2FA0#DBFE7C03FAFFFFFF
(1626967583.163729) can1 0CF00421#FFFFFFFFFFFFFFFF
(1626967583.164310) can1 1CFE9201#FF0071FFFFFFFFFF
(1626967583.164873) can1 18FEDB01#E900E900E900FFFF
(1626967583.165457) can1 18FD6501#6702FFFFFFFFFFFF
(1626967583.166029) can1 18F00E3D#8890FFFFFFFFFFFF
(1626967583.166618) can1 18F00F3D#8890FFFFFFFFFFFF
(1626967583.167210) can1 18FD8C3D#00000300FFFFFFFF
(1626967583.167799) can1 18FDB23D#FFFF83250000FFFF
(1626967583.168382) can1 18FDB300#FFFF8325FFFFFFFF
(1626967583.168966) can1 18FDB400#83258325FFFFFFFF
(1626967583.169962) can1 0CF00400#017D7D000000F07D
(1626967583.170556) can1 14FF0221#FFFFFFFFFFFFFFFF
(1626967583.171125) can1 10FE6F2A#FFFF00C0007D00FF
(1626967583.171720) can1 18FF3000#0000FFFFFFFFFFFF
(1626967583.172299) can1 0CF02FA0#01F9FAFFFFFFFFFF
(1626967583.173457) can1 14FDA421#FFFFFFFFFFFFFFFF
(1626967583.179819) can1 0CF00400#017D7D000000F07D
(1626967583.180384) can1 0CF00300#DD0000FFFFFF00FF
(1626967583.180985) can1 14FFA000#FCFFFFFFFFFFFFFF
(1626967583.181575) can1 18FEF200#000000009503FFFF
(1626967583.183539) can1 14FEF031#FFFFFFFFFFFC00FF
(1626967583.185159) can1 0C0BA027#FDFFFFFFFFFFFF86
(1626967583.189831) can1 0CF00400#017D7D000000F07D
(1626967583.190416) can1 10FF2121#32000FC0C0FFFF00
(1626967583.190981) can1 0C00000B#FCFFFAFAFFFFFFFF
(1626967583.191568) can1 0C0A002A#C1FFFFFFFFFFFFFF
(1626967583.192153) can1 18FEDF00#7D0013FF7D0000FF
(1626967583.199908) can1 0CF00400#017D7D000000F07D
(1626967583.201738) can1 18F0233D#FFFFFFFFFF0CFFFF
(1626967583.202324) can1 18FD413D#FFFFFFFFFCFCFCFC
(1626967583.206693) can1 0CF00A01#00000000FFFFFFFF
(1626967583.207276) can1 10F01A01#0000FFFFFFFFFFFF
(1626967583.209856) can1 0CF00400#017D7D000000F07D
(1626967583.210455) can1 18FEF000#FFFFFFFFFFFFFFFF
(1626967583.211027) can1 18FF2FA0#DB007D03FAFFFFFF
(1626967583.214256) can1 18F00E3D#8890FFFFFFFFFFFF
(1626967583.214831) can1 18F00F3D#8890FFFFFFFFFFFF
(1626967583.219816) can1 0CF00400#017D7D000000F07D
(1626967583.220383) can1 18FEE000#1CDD4F001CDD4F00
(1626967583.220964) can1 0CF02FA0#01F9FAFFFFFFFFFF
(1626967583.223372) can1 14F00031#CFFFFFFFFFFFFFFF
(1626967583.228095) can1 18FEBF0B#00007D7D7D7D7D7D
(1626967583.230070) can1 0CF00400#017D7D000000F07D
(1626967583.230657) can1 0CF00300#DD0000FFFFFF00FF
(1626967583.231245) can1 18FEF100#C700000000001F30
(1626967583.233512) can1 14F00131#FFFFFFFF00FFFFFF
(1626967583.235145) can1 18FE5127#1DFFFFFFFFFFFFFF
(1626967583.235733) can1 0C0BA027#FDFFFFFFFFFFFF97
(1626967583.238730) can1 18FE4F3E#0400FFFFFFFFFFFF
(1626967583.239873) can1 0CF00400#017D7D000000F07D
(1626967583.240442) can1 10FF2121#32000FC0C0FFFF00
(1626967583.241026) can1 18FEDF00#7D0013FF7D0000FF
(1626967583.243457) can1 14FEF121#F7FFFF0FFFFFFFFF
(1626967583.244038) can1 18F0010B#0001F0FFFF0DFFFF
(1626967583.246150) can1 14FF3131#4030030000FFFFF0
(1626967583.249349) can1 18FDC40B#FF00FFFFFFFFFFFF
(1626967583.249920) can1 0CF00400#017D7D000000F07D
(1626967583.250506) can1 14FF2321#041DE1FFFFFFFFFF
(1626967583.251401) can1 18FEF117#F7FFFFFFFFFFFFFF
(1626967583.252002) can1 18FF2017#0000000000000000
(1626967583.252561) can1 18F0233D#FFFFFFFFFF0CFFFF
(1626967583.253664) can1 14FEF131#CFFFFFF300FFFF30
(1626967583.256691) can1 0CF00A01#00000000FFFFFFFF
(1626967583.257284) can1 10F01A01#0000FFFFFFFFFFFF
(1626967583.257880) can1 10FCFD01#FFFFFFFF0000FFFF
(1626967583.258480) can1 18FD9401#9407FFFF0000C503
(1626967583.259060) can1 18FDA101#F302FFFFFFFF00FF
(1626967583.259672) can1 10FDA301#FFFFFFFFFFFFFFFF
(1626967583.260242) can1 18FDAA01#FFFFFFFFFFFFFF31
(1626967583.260820) can1 0CF00400#017D7D000000F07D
(1626967583.261404) can1 14FF0121#FFFFFFFFFFFFFCFF
(1626967583.261984) can1 18F0000F#007DFFFF0F7DFFFF
(1626967583.262568) can1 18FDD001#FFFFFF0031FFFFFF
(1626967583.263140) can1 18FF2FA0#DB007D03FAFFFFFF
(1626967583.263720) can1 0CF00421#FFFFFFFFFFFFFFFF
(1626967583.264298) can1 1CFE9201#FF0071FFFFFFFFFF
(1626967583.264864) can1 18FEDB01#E900E900E900FFFF
(1626967583.265435) can1 18F00E3D#8890FFFFFFFFFFFF
(1626967583.266016) can1 18F00F3D#8890FFFFFFFFFFFF
(1626967583.266615) can1 18FD8C3D#00000300FFFFFFFF
(1626967583.267199) can1 18FDB23D#FFFF83250000FFFF
(1626967583.267787) can1 18FDB300#FFFF8325FFFFFFFF
(1626967583.268372) can1 18FDB400#83258325FFFFFFFF
(1626967583.269939) can1 0CF00400#017D7D000000F07D
(1626967583.270511) can1 10FE6F2A#FFFF00C0007D00FF
(1626967583.271100) can1 14FF0221#FFFFFFFFFFFFFFFF
(1626967583.271672) can1 0C040B2A#FFFFCCFFFFFFFF9D
(1626967583.272271) can1 18FF3000#0000FFFFFFFFFFFF
(1626967583.272847) can1 0CF02FA0#01F9FAFFFFFFFFFF
(1626967583.273699) can1 14FDA421#FFFFFFFFFFFFFFFF
(1626967583.279810) can1 0CF00400#017D7D000000F07D
(1626967583.280397) can1 0CF00300#DD0000FFFFFF00FF
(1626967583.281000) can1 14FFA000#FCFFFFFFFFFFFFFF
(1626967583.281596) can1 18FEF200#000000009503FFFF
(1626967583.283648) can1 14FEF031#FFFFFFFFFFFC00FF
(1626967583.285148) can1 0C0BA027#FDFFFFFFFFFFFFA8
(1626967583.289852) can1 0CF00400#017D7D000000F07D
(1626967583.290421) can1 10FF2121#32000FC0C0FFFF00
(1626967583.291001) can1 0C00000B#FCFFFAFAFFFFFFFF
(1626967583.291589) can1 0C0A002A#C1FFFFFFFFFFFFFF
(1626967583.292175) can1 18FEDF00#7D0013FF7D0000FF
(1626967583.293577) can1 18FF2421#BFF0FCFFFFFFFFFF
(1626967583.299918) can1 0CF00400#017D7D000000F07D
(1626967583.301746) can1 18F0233D#FFFFFFFFFF0CFFFF
(1626967583.302334) can1 18FD413D#FFFFFFFFFCFCFCFC
(1626967583.306688) can1 0CF00A01#00000000FFFFFFFF
(1626967583.307280) can1 10F01A01#0000FFFFFFFFFFFF
(1626967583.309860) can1 0CF00400#017D7D000000F07D
(1626967583.310462) can1 18FEF000#FFFFFFFFFFFFFFFF
(1626967583.311042) can1 18FF2FA0#DBFF7C03FAFFFFFF
(1626967583.312230) can1 0C00100B#FCFFFA00FFFFFFFF
(1626967583.314250) can1 18F00E3D#8890FFFFFFFFFFFF
(1626967583.314829) can1 18F00F3D#8890FFFFFFFFFFFF
(1626967583.317539) can1 0C000F0B#FCFFFA00FFFFFFFF
(1626967583.319849) can1 0CF00400#017D7D000000F07D
(1626967583.320418) can1 18FEE000#1CDD4F001CDD4F00
(1626967583.320999) can1 0CF02FA0#01F9FAFFFFFFFFFF
(1626967583.322839) can1 0C00290B#FCFFFA00FFFFFFFF
(1626967583.323433) can1 14F00031#CFFFFFFFFFFFFFFF
(1626967583.328162) can1 18FEBF0B#00007D7D7D7D7D7D
(1626967583.330049) can1 0CF00400#017D7D000000F07D
(1626967583.330637) can1 0CF00300#DD0000FFFFFF00FF
(1626967583.331241) can1 18FEF100#C700000000001F30
(1626967583.333505) can1 14F00131#FFFFFFFF00FFFFFF
(1626967583.335120) can1 0C0BA027#FDFFFFFFFFFFFFB9
(1626967583.338795) can1 18FE4F3E#0400FFFFFFFFFFFF
(1626967583.339876) can1 0CF00400#017D7D000000F07D
(1626967583.340442) can1 10FF2121#32000FC0C0FFFF00
(1626967583.341026) can1 18FEDF00#7D0013FF7D0000FF
(1626967583.343510) can1 14FEF121#F7FFFF0FFFFFFFFF
(1626967583.344102) can1 18F0010B#0001F0FFFF0DFFFF
(1626967583.346229) can1 14FF3131#4030030000FFFFF0
(1626967583.349411) can1 18FDC40B#FF00FFFFFFFFFFFF
(1626967583.349982) can1 0CF00400#017D7D000000F07D
(1626967583.350558) can1 14FF2321#041DE1FFFFFFFFFF
(1626967583.351418) can1 18FEF117#F7FFFFFFFFFFFFFF
(1626967583.352009) can1 18FF2017#0000000000000000
(1626967583.352590) can1 18F0233D#FFFFFFFFFF0CFFFF
(1626967583.353654) can1 14FEF131#CFFFFFF300FFFF30
(1626967583.356696) can1 0CF00A01#00000000FFFFFFFF
(1626967583.357288) can1 10F01A01#0000FFFFFFFFFFFF
(1626967583.357883) can1 10FCFD01#FFFFFFFF0000FFFF
(1626967583.358479) can1 18FD9401#9407FFFF0000C503
(1626967583.359059) can1 18FDA101#F302FFFFFFFF00FF
(1626967583.359655) can1 10FDA301#FFFFFFFFFFFFFFFF
(1626967583.360245) can1 18FDAA01#FFFFFFFFFFFFFF31
(1626967583.360820) can1 0CF00400#017D7D000000F07D
(1626967583.361403) can1 14FF0121#FFFFFFFFFFFFFCFF
(1626967583.361983) can1 18F0000F#007DFFFF0F7DFFFF
(1626967583.362568) can1 18FDD001#FFFFFF0031FFFFFF
(1626967583.363148) can1 18FF2FA0#DBFF7C03FAFFFFFF
(1626967583.363728) can1 0CF00421#FFFFFFFFFFFFFFFF
(1626967583.364308) can1 1CFE9201#FF0071FFFFFFFFFF
(1626967583.364872) can1 18FEDB01#E900E900E900FFFF
(1626967583.365444) can1 18F00E3D#8890FFFFFFFFFFFF
(1626967583.366024) can1 18F00F3D#8890FFFFFFFFFFFF
(1626967583.366621) can1 18FD8C3D#00000300FFFFFFFF
(1626967583.367205) can1 18FDB23D#FFFF83250000FFFF
(1626967583.367797) can1 18FDB300#FFFF8325FFFFFFFF
(1626967583.368377) can1 18FDB400#83258325FFFFFFFF
(1626967583.369933) can1 0CF00400#017D7D000000F07D
(1626967583.370504) can1 10FE6F2A#FFFF00C0007D00FF
(1626967583.371093) can1 14FF0221#FFFFFFFFFFFFFFFF
(1626967583.371673) can1 0CF02FA0#01F9FAFFFFFFFFFF
(1626967583.372272) can1 18FF3000#0000FFFFFFFFFFFF
(1626967583.373625) can1 14FDA421#FFFFFFFFFFFFFFFF
(1626967583.379824) can1 0CF00400#017D7D000000F07D
(1626967583.380382) can1 0CF00300#DD0000FFFFFF00FF
(1626967583.380985) can1 14FFA000#FCFFFFFFFFFFFFFF
(1626967583.381578) can1 18FEF200#000000009503FFFF
(1626967583.383559) can1 14FEF031#FFFFFFFFFFFC00FF
(1626967583.385133) can1 0C0BA027#FDFFFFFFFFFFFFCA
(1626967583.389834) can1 0CF00400#017D7D000000F07D
(1626967583.390402) can1 10FF2121#32000FC0C0FFFF00
(1626967583.390990) can1 0C0A002A#C1FFFFFFFFFFFFFF
(1626967583.391570) can1 0C00000B#FCFFFAFAFFFFFFFF
(1626967583.392174) can1 18FEDF00#7D0013FF7D0000FF
(1626967583.399904) can1 0CF00400#017D7D000000F07D
(1626967583.401735) can1 18F0233D#FFFFFFFFFF0CFFFF
(1626967583.402323) can1 18FD413D#FFFFFFFFFCFCFCFC
(1626967583.406688) can1 0CF00A01#00000000FFFFFFFF
(1626967583.407276) can1 10F01A01#0000FFFFFFFFFFFF
(1626967583.409869) can1 0CF00400#017D7D000000F07D
(1626967583.410472) can1 18FEF000#FFFFFFFFFFFFFFFF
(1626967583.411051) can1 18FF2FA0#DB017D03FAFFFFFF
(1626967583.414258) can1 18F00E3D#8890FFFFFFFFFFFF
(1626967583.414831) can1 18F00F3D#8890FFFFFFFFFFFF
(1626967583.419903) can1 0CF00400#017D7D000000F07D
(1626967583.420478) can1 0CF02FA0#01F9FAFFFFFFFFFF
(1626967583.421035) can1 18FEE000#1CDD4F001CDD4F00
(1626967583.421643) can1 18FECA00#03FF00000000FFFF
(1626967583.423459) can1 14F00031#CFFFFFFFFFFFFFFF
(1626967583.428225) can1 18FEBF0B#00007D7D7D7D7D7D
(1626967583.430216) can1 0CF00400#017D7D000000F07D
(1626967583.430804) can1 0CF00300#DD0000FFFFFF00FF
(1626967583.431395) can1 18FEF100#C700000000001F30
(1626967583.432000) can1 18FDE000#FFFFFFFF1025FFFF
(1626967583.433448) can1 14F00131#FFFFFFFF00FFFFFF
(1626967583.435132) can1 0C0BA027#FDFFFFFFFFFFFFEB
(1626967583.438860) can1 18FE4F3E#0400FFFFFFFFFFFF
(1626967583.439882) can1 0CF00400#017D7D000000F07D
(1626967583.440453) can1 10FF2121#32000FC0C0FFFF00
(1626967583.441037) can1 18FEDF00#7D0013FF7D0000FF
(1626967583.441633) can1 18FEEF00#19FFFF00FFFFFFFA
(1626967583.443537) can1 14FEF121#F7FFFF0FFFFFFFFF
(1626967583.444162) can1 18F0010B#0001F0FFFF0DFFFF
(1626967583.446193) can1 14FF3131#4030030000FFFFF0
(1626967583.449479) can1 18FDC40B#FF00FFFFFFFFFFFF
(1626967583.450050) can1 0CF00400#017D7D000000F07D
(1626967583.450626) can1 14FF2321#041DE1FFFFFFFFFF
(1626967583.451203) can1 18FCDC00#E1FEFEFFFFFFFFFF
(1626967583.451778) can1 18FEF117#F7FFFFFFFFFFFFFF
(1626967583.452351) can1 18F0233D#FFFFFFFFFF0CFFFF
(1626967583.452939) can1 18FF2017#0000000000000000
(1626967583.453798) can1 14FEF131#CFFFFFF300FFFF30
(1626967583.456695) can1 0CF00A01#00000000FFFFFFFF
(1626967583.457282) can1 10F01A01#0000FFFFFFFFFFFF
(1626967583.457879) can1 10FCFD01#FFFFFFFF0000FFFF
(1626967583.458490) can1 18FD9401#9407FFFF0000C503
(1626967583.459062) can1 18FDA101#F302FFFFFFFF00FF
(1626967583.459655) can1 10FDA301#FFFFFFFFFFFFFFFF
(1626967583.460246) can1 18FDAA01#FFFFFFFFFFFFFF31
(1626967583.460820) can1 0CF00400#017D7D000000F07D
(1626967583.461404) can1 14FF0121#FFFFFFFFFFFFFCFF
(1626967583.461983) can1 18F0000F#007DFFFF0F7DFFFF
(1626967583.462567) can1 18FDD001#FFFFFF0031FFFFFF
(1626967583.463143) can1 18FF2FA0#DBFE7C03FAFFFFFF
(1626967583.463722) can1 1CFE9201#FF0071FFFFFFFFFF
(1626967583.464321) can1 0CF00421#FFFFFFFFFFFFFFFF
(1626967583.464861) can1 18FEDB01#E900E900E900FFFF
(1626967583.465432) can1 18F00E3D#8890FFFFFFFFFFFF
(1626967583.466010) can1 18F00F3D#8890FFFFFFFFFFFF
(1626967583.466614) can1 18FD8C3D#00000300FFFFFFFF
(1626967583.467198) can1 18FDB23D#FFFF83250000FFFF
(1626967583.467786) can1 18FDB300#FFFF8325FFFFFFFF
(1626967583.468371) can1 18FDB400#83258325FFFFFFFF
(1626967583.469930) can1 0CF00400#017D7D000000F07D
(1626967583.470518) can1 14FF0221#FFFFFFFFFFFFFFFF
(1626967583.471090) can1 10FE6F2A#FFFF00C0007D00FF
(1626967583.471687) can1 18FF3000#0000FFFFFFFFFFFF
(1626967583.472258) can1 0C040B2A#FFFFCCFFFFFFFFAE
(1626967583.472834) can1 0CF02FA0#01F9FAFFFFFFFFFF
(1626967583.473722) can1 14FDA421#FFFFFFFFFFFFFFFF
(1626967583.479798) can1 0CF00400#017D7D000000F07D
(1626967583.480383) can1 0CF00300#DD0000FFFFFF00FF
(1626967583.480987) can1 14FFA000#FCFFFFFFFFFFFFFF
(1626967583.481579) can1 18FEF200#000000009503FFFF
(1626967583.482159) can1 18FEF500#C9FFFF0E2544FFFF
(1626967583.483623) can1 14FEF031#FFFFFFFFFFFC00FF
(1626967583.485147) can1 18FE5127#1DFFFFFFFFFFFFFF
(1626967583.485739) can1 0C0BA027#FDFFFFFFFFFFFFFC
(1626967583.489847) can1 0CF00400#017D7D000000F07D
(1626967583.490443) can1 18FEDF00#7D0013FF7D0000FF
(1626967583.491031) can1 0C0A002A#C1FFFFFFFFFFFFFF
(1626967583.491611) can1 0C00000B#FCFFFAFAFFFFFFFF
(1626967583.492185) can1 10FF2121#32000FC0C0FFFF00
(1626967583.499916) can1 0CF00400#017D7D000000F07D
(1626967583.500500) can1 18FEEE00#40402025FFFF44FF
(1626967583.501740) can1 18F0233D#FFFFFFFFFF0CFFFF
(1626967583.502328) can1 18FD413D#FFFFFFFFFCFCFCFC
(1626967583.506686) can1 0CF00A01#00000000FFFFFFFF
(1626967583.507279) can1 10F01A01#0000FFFFFFFFFFFF
(1626967583.509856) can1 0CF00400#017D7D000000F07D
(1626967583.510462) can1 18FEF000#FFFFFFFFFFFFFFFF
(1626967583.511035) can1 18FF2FA0#DB007D03FAFFFFFF
(1626967583.511613) can1 18FEA400#FFFFFFFF3E7D2022
(1626967583.512364) can1 0C00100B#FCFFFA00FFFFFFFF
(1626967583.514253) can1 18F00E3D#8890FFFFFFFFFFFF
(1626967583.514834) can1 18F00F3D#8890FFFFFFFFFFFF
(1626967583.517666) can1 0C000F0B#FCFFFA00FFFFFFFF
(1626967583.519860) can1 0CF00400#017D7D000000F07D
(1626967583.520438) can1 0CF02FA0#01F9FAFFFFFFFFFF
(1626967583.521014) can1 14FD3E00#7025FF7C25FFFFFF
(1626967583.521581) can1 18FEE000#1CDD4F001CDD4F00
(1626967583.522966) can1 0C00290B#FCFFFA00FFFFFFFF
(1626967583.523570) can1 14F00031#CFFFFFFFFFFFFFFF
(1626967583.528292) can1 18FEBF0B#00007D7D7D7D7D7D
(1626967583.530055) can1 0CF00400#017D7D000000F07D
(1626967583.530644) can1 0CF00300#DD0000FFFFFF00FF
(1626967583.531244) can1 18FEF100#C700000000001F30
(1626967583.531860) can1 18FEBD00#00F00000FFFFFFFF
(1626967583.533608) can1 14F00131#FFFFFFFF00FFFFFF
(1626967583.535116) can1 0C0BA027#FDFFFFFFFFFFFF0D
(1626967583.538941) can1 18FE4F3E#0400FFFFFFFFFFFF
(1626967583.539872) can1 0CF00400#017D7D000000F07D
(1626967583.540470) can1 18FEDF00#7D0013FF7D0000FF
(1626967583.541042) can1 10FF2121#32000FC0C0FFFF00
(1626967583.541625) can1 18FF7400#D400FFFFFFFCFFFF
(1626967583.543554) can1 14FEF121#F7FFFF0FFFFFFFFF
(1626967583.544226) can1 18F0010B#0001F0FFFF0DFFFF
(1626967583.545182) can1 18FF1919#01030A00FFFFFFFF
(1626967583.546458) can1 14FF3131#4030030000FFFFF0
(1626967583.549543) can1 18FDC40B#FF00FFFFFFFFFFFF
(1626967583.550114) can1 0CF00400#017D7D000000F07D
(1626967583.550691) can1 14FF2321#041DE1FFFFFFFFFF
(1626967583.551258) can1 18FD7C00#F8F3C03430FFE3FF
(1626967583.551836) can1 18FEF117#F7FFFFFFFFFFFFFF
(1626967583.552407) can1 18F0233D#FFFFFFFFFF0CFFFF
(1626967583.553000) can1 18FF1B19#FFFCFFFFFFFFFFFF
(1626967583.553578) can1 18FF2017#0000000000000000
(1626967583.554136) can1 14FEF131#CFFFFFF300FFFF30
(1626967583.556699) can1 0CF00A01#00000000FFFFFFFF
(1626967583.557283) can1 10F01A01#0000FFFFFFFFFFFF
(1626967583.557880) can1 10FCFD01#FFFFFFFF0000FFFF
(1626967583.558488) can1 18FD9401#9407FFFF0000C503
(1626967583.559068) can1 18FDA101#F302FFFFFFFF00FF
(1626967583.559663) can1 10FDA301#FFFFFFFFFFFFFFFF
(1626967583.560254) can1 18FDAA01#FFFFFFFFFFFFFF31
(1626967583.560830) can1 0CF00400#017D7D000000F07D
(1626967583.561414) can1 14FF0121#FFFFFFFFFFFFFCFF
(1626967583.561992) can1 18F0000F#007DFFFF0F7DFFFF
(1626967583.562577) can1 18FDD001#FFFFFF0031FFFFFF
(1626967583.563148) can1 18FEF600#FF004431FF8025FF
(1626967583.563729) can1 0CF00421#FFFFFFFFFFFFFFFF
(1626967583.564313) can1 18FEE400#007FFFFC007FFFFF
(1626967583.564884) can1 18FF2FA0#DB007D03FAFFFFFF
(1626967583.565464) can1 1CFE9201#FF0071FFFFFFFFFF
(1626967583.566029) can1 18FEDB01#E900E900E900FFFF
(1626967583.566609) can1 18F00E3D#8890FFFFFFFFFFFF
(1626967583.567192) can1 18F00F3D#8890FFFFFFFFFFFF
(1626967583.567784) can1 18FD8C3D#00000300FFFFFFFF
(1626967583.568368) can1 18FDB23D#FFFF83250000FFFF
(1626967583.568956) can1 18FDB300#FFFF8325FFFFFFFF
(1626967583.569540) can1 18FDB400#83258325FFFFFFFF
(1626967583.570117) can1 0CF00400#017D7D000000F07D
(1626967583.570688) can1 10FE6F2A#FFFF00C0007D00FF
(1626967583.571276) can1 14FF0221#FFFFFFFFFFFFFFFF
(1626967583.571860) can1 0CF02FA0#01F9FAFFFFFFFFFF
(1626967583.572452) can1 18FF3000#0000FFFFFFFFFFFF
(1626967583.573636) can1 14FDA421#FFFFFFFFFFFFFFFF
(1626967583.579808) can1 0CF00400#017D7D000000F07D
(1626967583.580392) can1 0CF00300#DD0000FFFFFF00FF
(1626967583.581000) can1 14FFA000#FCFFFFFFFFFFFFFF
(1626967583.581596) can1 18FEF200#000000009503FFFF
(1626967583.583428) can1 14FEF031#FFFFFFFFFFFC00FF
(1626967583.585116) can1 0C0BA027#FDFFFFFFFFFFFF1E
(1626967583.589848) can1 0CF00400#017D7D000000F07D
(1626967583.590416) can1 10FF2121#32000FC0C0FFFF00
(1626967583.591004) can1 0C0A002A#C1FFFFFFFFFFFFFF
(1626967583.591585) can1 0C00000B#FCFFFAFAFFFFFFFF
(1626967583.592171) can1 18FEDF00#7D0013FF7D0000FF
(1626967583.592765) can1 18FE5600#AB40FFFF1F1F00FF
(1626967583.599901) can1 0CF00400#017D7D000000F07D
(1626967583.600482) can1 18FEC100#B997CC07B997CC07
(1626967583.601729) can1 18F0233D#FFFFFFFFFF0CFFFF
(1626967583.602338) can1 18FD413D#FFFFFFFFFCFCFCFC
(1626967583.606688) can1 0CF00A01#00000000FFFFFFFF
(1626967583.607275) can1 10F01A01#0000FFFFFFFFFFFF
(1626967583.609859) can1 0CF00400#017D7D000000F07D
(1626967583.610456) can1 18FEF000#FFFFFFFFFFFFFFFF
(1626967583.611027) can1 18FF2FA0#DB027D03FAFFFFFF
(1626967583.611610) can1 18FEF700#FFFFFFFFF400F400
(1626967583.614252) can1 18F00E3D#8890FFFFFFFFFFFF
(1626967583.614832) can1 18F00F3D#8890FFFFFFFFFFFF
(1626967583.619840) can1 0CF00400#017D7D000000F07D
(1626967583.620403) can1 18FEE000#1CDD4F001CDD4F00
(1626967583.620982) can1 0CF02FA0#01F9FAFFFFFFFFFF
(1626967583.623406) can1 14F00031#CFFFFFFFFFFFFFFF
(1626967583.628358) can1 18FEBF0B#00007D7D7D7D7D7D
(1626967583.630069) can1 0CF00400#017D7D000000F07D
(1626967583.630657) can1 0CF00300#DD0000FFFFFF00FF
(1626967583.631248) can1 18FEF100#C700000000001F30
(1626967583.633400) can1 14F00131#FFFFFFFF00FFFFFF
(1626967583.635123) can1 0C0BA027#FDFFFFFFFFFFFF2F
(1626967583.638991) can1 18FE4F3E#0400FFFFFFFFFFFF
(1626967583.639873) can1 0CF00400#017D7D000000F07D
(1626967583.640471) can1 18FEDF00#7D0013FF7D0000FF
(1626967583.641043) can1 10FF2121#32000FC0C0FFFF00
(1626967583.643543) can1 14FEF121#F7FFFF0FFFFFFFFF
(1626967583.644295) can1 18F0010B#0001F0FFFF0DFFFF
(1626967583.646212) can1 14FF3131#4030030000FFFFF0
(1626967583.649608) can1 18FDC40B#FF00FFFFFFFFFFFF
(1626967583.650181) can1 0CF00400#017D7D000000F07D
(1626967583.650757) can1 14FF2321#041DE1FFFFFFFFFF
(1626967583.651333) can1 18FEF117#F7FFFFFFFFFFFFFF
(1626967583.651922) can1 18FF2017#0000000000000000
(1626967583.652494) can1 18F0233D#FFFFFFFFFF0CFFFF
(1626967583.653622) can1 14FEF131#CFFFFFF300FFFF30
(1626967583.656711) can1 0CF00A01#00000000FFFFFFFF
(1626967583.657288) can1 10F01A01#0000FFFFFFFFFFFF
(1626967583.657883) can1 18FECA01#03FF00000000FFFF
(1626967583.658503) can1 10FCFD01#FFFFFFFF0000FFFF
(1626967583.659078) can1 18FD9401#9407FFFF0000C503
(1626967583.659658) can1 18FDA101#F302FFFFFFFF00FF
(1626967583.660263) can1 10FDA301#FFFFFFFFFFFFFFFF
(1626967583.660834) can1 0CF00400#017D7D000000F07D
(1626967583.661417) can1 14FF0121#FFFFFFFFFFFFFCFF
(1626967583.661997) can1 18F0000F#007DFFFF0F7DFFFF
(1626967583.662574) can1 18FDAA01#FFFFFFFFFFFFFF31
(1626967583.663145) can1 18FF2FA0#DB007D03FAFFFFFF
(1626967583.663730) can1 18FDD001#FFFFFF0031FFFFFF
(1626967583.664313) can1 0CF00421#FFFFFFFFFFFFFFFF
(1626967583.664891) can1 1CFE9201#FF0071FFFFFFFFFF
(1626967583.665454) can1 18FEDB01#E900E900E900FFFF
(1626967583.666038) can1 18FD6501#6702FFFFFFFFFFFF
(1626967583.666646) can1 18FD6601#FF40FFFFFFFFFFFF
(1626967583.667201) can1 18FE6901#95252A25FFFF2125
(1626967583.667825) can1 18FE9701#FFFFFFFFFFFFFFFF
(1626967583.668401) can1 18FE9801#6027FFFFFFFFFFFF
(1626967583.668994) can1 18FE9901#007DFFFFFFFFFFFF
(1626967583.669586) can1 18FE9A01#201DFFFFFFFFFFFF
(1626967583.670182) can1 18FEDD01#FF0000FFFFFFFFFF
(1626967583.670758) can1 0CF00400#017D7D000000F07D
(1626967583.671329) can1 10FE6F2A#FFFF00C0007D00FF
(1626967583.671922) can1 14FF0221#FFFFFFFFFFFFFFFF
(1626967583.672493) can1 0C040B2A#FFFFCCFFFFFFFFBF
(1626967583.673074) can1 0CF02FA0#01F9FAFFFFFFFFFF
(1626967583.673638) can1 18F00E3D#8890FFFFFFFFFFFF
(1626967583.674222) can1 14FDA421#FFFFFFFFFFFFFFFF
(1626967583.674794) can1 18F00F3D#8890FFFFFFFFFFFF
(1626967583.675390) can1 18FF3000#0000FFFFFFFFFFFF
