(1648583717.428998) can1 0CF00400#707D83C312000F84
(1648583717.430971) can1 18F00E00#00FBFFFFFFFFFFFF
(1648583717.440980) can1 18FEDF00#83A0287D7DFFFFF0
(1648583717.447482) can1 0CF00300#D1000EFFFF5F617D
(1648583717.449298) can1 0CF00400#707D83C212000F84
(1648583717.450989) can1 18F00F00#00FBFFFFFFFFFFFF
(1648583717.460933) can1 18FEDF00#83A0287D7DFFFFF0
(1648583717.461496) can1 0CF00A00#BA0ABD09FFFFFFFF
(1648583717.462070) can1 18FEF200#310000004008FAFF
(1648583717.466644) can1 0CF00300#D1000EFFFF5F617D
(1648583717.468965) can1 0CF00400#707D83C012000F84
(1648583717.471948) can1 18FEF121#C3FFFFC300FFFFF0
(1648583717.480593) can1 18FEF721#FFFFFFFF1B01FFFF
(1648583717.481737) can1 18FEFA21#00004FFFFFFFFFFF
(1648583717.482334) can1 18FEDF00#83A0287D7DFFFFF0
(1648583717.483478) can1 18F00E00#00FBFFFFFFFFFFFF
(1648583717.487251) can1 0CF00300#D1000EFFFF5F617D
(1648583717.489631) can1 0CF00400#007D84BA12000F84
(1648583717.495594) can1 18FEF100#FF0000FCFF001FCF
(1648583717.496179) can1 18FEEF00#FFFFFF3F087DFFFA
(1648583717.501094) can1 18FEDF00#83A0287D7DFFFFF0
(1648583717.501709) can1 18F00F00#00FBFFFFFFFFFFFF
(1648583717.507034) can1 0CF00300#D1000EFFFF5F617D
(1648583717.509447) can1 0CF00400#107D84B912000F84
(1648583717.510398) can1 0CF00A00#BA0A9809FFFFFFFF
(1648583717.515695) can1 1CFE9200#FFB085FFFFFF0300
(1648583717.518056) can1 18FEFA0B#00FFFFFFFFFFFFFF
(1648583717.521068) can1 18FEDF00#83A0287D7DFFFFF0
(1648583717.526894) can1 0CF00300#D1000FFFFF5F617D
(1648583717.529142) can1 0CF00400#007D84C012000F84
(1648583717.530963) can1 18F00E00#00FBFFFFFFFFFFFF
(1648583717.540732) can1 18FEDF00#83A0287D7DFFFFF0
(1648583717.541946) can1 18FEF600#FF004631FFFFFFFF
(1648583717.544562) can1 18FEFA21#00004FFFFFFFFFFF
(1648583717.546960) can1 0CF00300#D1000EFFFF5F617D
(1648583717.549235) can1 0CF00400#707D83C512000F84
(1648583717.550971) can1 18F00F00#00FBFFFFFFFFFFFF
(1648583717.560965) can1 18FEDF00#83A0287D7DFFFFF0
(1648583717.561578) can1 0CF00A00#BA0ABD09FFFFFFFF
(1648583717.562144) can1 18FEF200#310000004008FAFF
(1648583717.566804) can1 0CF00300#D1000EFFFF5F607D
(1648583717.569124) can1 0CF00400#707D83C512000F84
(1648583717.570317) can1 18FEF121#C3FFFFC300FFFFF0
(1648583717.580686) can1 18FEDF00#83A0287D7DFFFFF0
(1648583717.581332) can1 18F00E00#00FBFFFFFFFFFFFF
(1648583717.586962) can1 0CF00300#D1000EFFFF5F617D
(1648583717.589340) can1 0CF00400#707D83C812000F84
(1648583717.595410) can1 18FEF100#FF0000FCFF001FCF
(1648583717.601011) can1 18FEDF00#83A0287D7DFFFFF0
(1648583717.601640) can1 18F00F00#00FBFFFFFFFFFFFF
(1648583717.607177) can1 0CF00300#D1000EFFFF5F617D
(1648583717.609511) can1 0CF00400#607D83CA12000F84
(1648583717.610572) can1 0CF00A00#BA0AAB09FFFFFFFF
(1648583717.616846) can1 1CFE9200#FFA885FFFFFF0300
(1648583717.617488) can1 18FEFA0B#00FFFFFFFFFFFFFF
(1648583717.620777) can1 18FEDF00#83A0287D7DFFFFF0
(1648583717.626751) can1 0CF00300#D1000EFFFF5F617D
(1648583717.629055) can1 0CF00400#607D83C412000F84
(1648583717.630963) can1 18F00E00#00FBFFFFFFFFFFFF
(1648583717.640971) can1 18FEDF00#83A0287D7DFFFFF0
(1648583717.647052) can1 0CF00300#D1000EFFFF5F627D
(1648583717.649317) can1 0CF00400#707D83BF12000F84
(1648583717.651061) can1 18F00F00#00FBFFFFFFFFFFFF
(1648583717.660971) can1 18FEDF00#83A0287D7DFFFFF0
(1648583717.661551) can1 0CF00A00#BA0ABD09FFFFFFFF
(1648583717.662129) can1 18FEF200#310000004108FAFF
(1648583717.666659) can1 0CF00300#D1000EFFFF5F627D
(1648583717.669038) can1 0CF00400#707D83BF12000F84
(1648583717.670144) can1 18FEF121#C3FFFFC300FFFFF0
(1648583717.680945) can1 18FDB400#432CD92CFFFFFFFF
(1648583717.681578) can1 18FEDF00#83A0287D7DFFFFF0
(1648583717.682149) can1 18F00E00#00FBFFFFFFFFFFFF
(1648583717.687277) can1 0CF00300#D1000EFFFF5F617D
(1648583717.689513) can1 0CF00400#007D84BC12000F84
(1648583717.695415) can1 18FEF100#FF0000FCFF001FCF
(1648583717.700770) can1 18FEDF00#83A0287D7DFFFFF0
(1648583717.701380) can1 18F00F00#00FBFFFFFFFFFFFF
(1648583717.704593) can1 18FEFA21#00004FFFFFFFFFFF
(1648583717.707157) can1 18FDB300#FFFFF02BFFFFFFFF
(1648583717.707737) can1 0CF00300#D1000EFFFF5F617D
(1648583717.709452) can1 0CF00400#007D84B712000F84
(1648583717.710457) can1 0CF00A00#BA0AA109FFFFFFFF
(1648583717.715711) can1 1CFE9200#FFA885FFFFFF0300
(1648583717.718084) can1 18FEFA0B#00FFFFFFFFFFFFFF
(1648583717.721066) can1 18FEDF00#83A0287D7DFFFFF0
(1648583717.726971) can1 0CF00300#D1000EFFFF5F617D
(1648583717.729172) can1 0CF00400#107D84BB12000F84
(1648583717.730359) can1 18FDB200#FFFFFFFF0000FFFF
(1648583717.731578) can1 18F00E00#00FBFFFFFFFFFFFF
(1648583717.740729) can1 18FEDF00#83A0287D7DFFFFF0
(1648583717.747394) can1 0CF00300#D1000FFFFF5F617D
(1648583717.749216) can1 0CF00400#007D84C312000F84
(1648583717.751645) can1 18F00F00#00FBFFFFFFFFFFFF
(1648583717.761003) can1 18FEDF00#83A0287D7DFFFFF0
(1648583717.761580) can1 0CF00A00#BA0AAB09FFFFFFFF
(1648583717.762138) can1 18FEF200#310000004008FAFF
(1648583717.766764) can1 18FEF700#FFFFFFFF1A01FFFF
(1648583717.767962) can1 0CF00300#D1000EFFFF5F607D
(1648583717.769155) can1 0CF00400#707D83C612000F84
(1648583717.770328) can1 18FEF121#C3FFFFC300FFFFF0
(1648583717.780697) can1 18FEDF00#83A0287D7DFFFFF0
(1648583717.781337) can1 18F00E00#00FBFFFFFFFFFFFF
(1648583717.784589) can1 18FEFA21#00004FFFFFFFFFFF
(1648583717.786964) can1 0CF00300#D1000EFFFF5F617D
(1648583717.789415) can1 0CF00400#607D83C612000F84
(1648583717.796008) can1 18FEF100#FF0000FCFF001FCF
(1648583717.801516) can1 18FEDF00#83A0287D7DFFFFF0
(1648583717.802126) can1 18F00F00#00FBFFFFFFFFFFFF
(1648583717.807214) can1 0CF00300#D1000EFFFF5F617D
(1648583717.809558) can1 0CF00400#707D83C412000F84
(1648583717.810504) can1 0CF00A00#BA0AAB09FFFFFFFF
(1648583717.816283) can1 1CFE9200#FFA885FFFFFF0300
(1648583717.816890) can1 18FEFA0B#00FFFFFFFFFFFFFF
(1648583717.820782) can1 18FEDF00#83A0287D7DFFFFF0
(1648583717.826742) can1 0CF00300#D1000EFFFF5F617D
(1648583717.829052) can1 0CF00400#707D83C112000F84
(1648583717.830974) can1 18F00E00#00FBFFFFFFFFFFFF
(1648583717.841015) can1 18FEDF00#83A0287D7DFFFFF0
(1648583717.847092) can1 0CF00300#D1000EFFFF5F627D
(1648583717.849321) can1 0CF00400#707D83C012000F84
(1648583717.851084) can1 18F00F00#00FBFFFFFFFFFFFF
(1648583717.860970) can1 18FEDF00#83A0287D7DFFFFF0
(1648583717.861583) can1 0CF00A00#BA0AC709FFFFFFFF
(1648583717.862138) can1 18FEF200#300000004008FAFF
(1648583717.866651) can1 0CF00300#D1000EFFFF5F617D
(1648583717.868990) can1 0CF00400#707D83BE12000F84
(1648583717.870161) can1 18FEF121#C3FFFFC300FFFFF0
(1648583717.880986) can1 18FEDF00#83A0287D7DFFFFF0
(1648583717.881606) can1 18F00E00#00FBFFFFFFFFFFFF
(1648583717.887286) can1 0CF00300#D1000EFFFF5F617D
(1648583717.889538) can1 0CF00400#007D84B612000F84
(1648583717.895420) can1 18FEF100#FF0000FCFF001FCF
(1648583717.900782) can1 18FEDF00#83A0287D7DFFFFF0
(1648583717.901388) can1 18F00F00#00FBFFFFFFFFFFFF
(1648583717.907163) can1 0CF00300#D1000EFFFF5F617D
(1648583717.909484) can1 0CF00400#107D84B512000F84
(1648583717.910471) can1 0CF00A00#BA0A9809FFFFFFFF
(1648583717.915756) can1 1CFE9200#FFA885FFFFFF0300
(1648583717.918699) can1 18FEFA0B#00FFFFFFFFFFFFFF
(1648583717.921085) can1 18FEDF00#83A0287D7DFFFFF0
(1648583717.926992) can1 0CF00300#D1000FFFFF5F617D
(1648583717.929189) can1 0CF00400#107D84BD12000F84
(1648583717.930974) can1 18F00E00#00FBFFFFFFFFFFFF
(1648583717.940755) can1 18FEDF00#83A0287D7DFFFFF0
(1648583717.948039) can1 0CF00300#D1000FFFFF5F607D
(1648583717.949203) can1 0CF00400#007D84C212000F84
(1648583717.951094) can1 18F00F00#00FBFFFFFFFFFFFF
(1648583717.961023) can1 18FEDF00#83A0287D7DFFFFF0
(1648583717.961563) can1 0CF00A00#BA0ABD09FFFFFFFF
(1648583717.962145) can1 18FEF200#310000004008FAFF
(1648583717.966802) can1 0CF00300#D1000EFFFF5F607D
(1648583717.969087) can1 0CF00400#007D84C112000F84
(1648583717.970317) can1 18FEF121#C3FFFFC300FFFFF0
(1648583717.980724) can1 18FEDF00#83A0287D7DFFFFF0
(1648583717.981326) can1 18F00E00#00FBFFFFFFFFFFFF
(1648583717.987234) can1 0CF00300#D1000EFFFF5F617D
(1648583717.989459) can1 0CF00400#707D83C412000F84
(1648583717.995402) can1 18FEF100#FF0000FCFF001FCF
(1648583717.996004) can1 18FEEF00#FFFFFF3F0B7DFFFA
(1648583718.001020) can1 18FEDF00#83A0287D7DFFFFF0
(1648583718.001636) can1 18F00F00#00FBFFFFFFFFFFFF
(1648583718.007172) can1 0CF00300#D1000EFFFF5F617D
(1648583718.009560) can1 0CF00400#707D83C512000F84
(1648583718.010562) can1 0CF00A00#BA0AB409FFFFFFFF
(1648583718.016266) can1 1CFE9200#FFB085FFFFFF0300
(1648583718.016901) can1 18FEFA0B#00FFFFFFFFFFFFFF
(1648583718.020790) can1 18FEDF00#83A0287D7DFFFFF0
(1648583718.026749) can1 0CF00300#D1000EFFFF5F617D
(1648583718.029056) can1 0CF00400#707D83C012000F84
(1648583718.030998) can1 18F00E00#00FBFFFFFFFFFFFF
(1648583718.041010) can1 18FEDF00#83A0287D7DFFFFF0
(1648583718.042298) can1 18FEF600#FF004631FFFFFFFF
(1648583718.047046) can1 0CF00300#D1000EFFFF5F617D
(1648583718.049289) can1 0CF00400#007D84BC12000F84
(1648583718.051123) can1 18F00F00#00FBFFFFFFFFFFFF
(1648583718.060949) can1 18FEDF00#83A0287D7DFFFFF0
(1648583718.061553) can1 0CF00A00#BA0ABD09FFFFFFFF
(1648583718.062109) can1 18FEF200#310000004008FAFF
(1648583718.066641) can1 0CF00300#D1000EFFFF5F617D
(1648583718.068966) can1 0CF00400#007D84BD12000F84
(1648583718.070165) can1 18FEF121#C3FFFFC300FFFFF0
(1648583718.081558) can1 18FEDF00#83A0287D7DFFFFF0
(1648583718.082173) can1 18F00E00#00FBFFFFFFFFFFFF
(1648583718.087265) can1 0CF00300#D1000EFFFF5F617D
(1648583718.089507) can1 0CF00400#007D84BA12000F84
(1648583718.095406) can1 18FEF100#FF0000FCFF001FCF
(1648583718.100796) can1 18FEDF00#83A0287D7DFFFFF0
(1648583718.101382) can1 18F00F00#00FBFFFFFFFFFFFF
(1648583718.107333) can1 0CF00300#D1000EFFFF5F617D
(1648583718.109417) can1 0CF00400#107D84B612000F84
(1648583718.110389) can1 0CF00A00#BA0AA109FFFFFFFF
(1648583718.115719) can1 18FD7C00#E08B0100C34F03FF
(1648583718.116902) can1 1CFE9200#FFB485FFFFFF0300
(1648583718.118709) can1 18FEFA0B#00FFFFFFFFFFFFFF
(1648583718.121077) can1 18FEDF00#83A0287D7DFFFFF0
(1648583718.126890) can1 0CF00300#D1000FFFFF5F617D
(1648583718.129149) can1 0CF00400#107D84B812000F84
(1648583718.130992) can1 18F00E00#00FBFFFFFFFFFFFF
(1648583718.140745) can1 18FEDF00#83A0287D7DFFFFF0
(1648583718.147484) can1 0CF00300#D1000FFFFF5F617D
(1648583718.149180) can1 0CF00400#007D84C012000F84
(1648583718.151014) can1 18F00F00#00FBFFFFFFFFFFFF
(1648583718.160998) can1 18FEDF00#83A0287D7DFFFFF0
(1648583718.161597) can1 0CF00A00#BA0AAB09FFFFFFFF
(1648583718.162157) can1 18FEF200#310000004008FAFF
(1648583718.166819) can1 0CF00300#D1000EFFFF5F607D
(1648583718.169084) can1 0CF00400#007D84C112000F84
(1648583718.170338) can1 18FEF121#C3FFFFC300FFFFF0
(1648583718.180681) can1 18FDB400#462CD92CFFFFFFFF
(1648583718.181257) can1 18FEDF00#83A0287D7DFFFFF0
(1648583718.181850) can1 18F00E00#00FBFFFFFFFFFFFF
(1648583718.186992) can1 0CF00300#D1000EFFFF5F607D
(1648583718.189347) can1 0CF00400#707D83C212000F84
(1648583718.195426) can1 18FEF100#FF0000FCFF001FCF
(1648583718.196003) can1 18FEEE00#68FF2F2AFFFFFFFF
(1648583718.201043) can1 18FEDF00#83A0287D7DFFFFF0
(1648583718.201659) can1 18F00F00#00FBFFFFFFFFFFFF
(1648583718.207208) can1 18FDB300#FFFFF02BFFFFFFFF
(1648583718.207801) can1 0CF00300#D1000EFFFF5F617D
(1648583718.209502) can1 0CF00400#707D83C012000F84
(1648583718.210517) can1 0CF00A00#BA0AA109FFFFFFFF
(1648583718.216240) can1 1CFE9200#FFB085FFFFFF0400
(1648583718.217410) can1 18FEFA0B#00FFFFFFFFFFFFFF
(1648583718.220787) can1 18FEDF00#83A0287D7DFFFFF0
(1648583718.225076) can1 18FEFA21#00004FFFFFFFFFFF
(1648583718.226750) can1 0CF00300#D1000EFFFF5F617D
(1648583718.229016) can1 0CF00400#707D83BD12000F84
(1648583718.230476) can1 18FDB200#FFFFFFFF0000FFFF
(1648583718.231605) can1 18F00E00#00FBFFFFFFFFFFFF
(1648583718.240997) can1 18FEDF00#83A0287D7DFFFFF0
(1648583718.247504) can1 0CF00300#D1000EFFFF5F617D
(1648583718.249263) can1 0CF00400#007D84BA12000F84
(1648583718.251640) can1 18F00F00#00FBFFFFFFFFFFFF
(1648583718.261000) can1 18FEDF00#83A0287D7DFFFFF0
(1648583718.261617) can1 0CF00A00#C40AAB09FFFFFFFF
(1648583718.262154) can1 18FEF200#310000004008FAFF
(1648583718.266676) can1 0CF00300#D1000EFFFF5F617D
(1648583718.268992) can1 0CF00400#007D84BA12000F84
(1648583718.270173) can1 18FEF121#C3FFFFC300FFFFF0
(1648583718.280995) can1 18FEDF00#83A0287D7DFFFFF0
(1648583718.281619) can1 18F00E00#00FBFFFFFFFFFFFF
(1648583718.287268) can1 0CF00300#D1000EFFFF5F617D
(1648583718.288459) can1 18FEF500#C6FFFFF922FFFFFF
(1648583718.289555) can1 0CF00400#107D84B212000F84
(1648583718.296003) can1 18FEF100#FF0000FCFF001FCF
(1648583718.301394) can1 18FEDF00#83A0287D7DFFFFF0
(1648583718.302545) can1 18F00F00#00FBFFFFFFFFFFFF
(1648583718.307128) can1 0CF00300#D1000FFFFF5F617D
(1648583718.308293) can1 18FEA400#FFFF2426FFFF2C29
(1648583718.309509) can1 0CF00400#207D84B012000F84
(1648583718.310411) can1 0CF00A00#C40A8509FFFFFFFF
(1648583718.315707) can1 1CFE9200#FFA085FFFFFF0400
(1648583718.318114) can1 18FEFA0B#00FFFFFFFFFFFFFF
(1648583718.321042) can1 18FEDF00#83A0287D7DFFFFF0
(1648583718.326927) can1 0CF00300#D1000FFFFF5F607D
(1648583718.329117) can1 0CF00400#207D84B612000F84
(1648583718.331015) can1 18F00E00#00FBFFFFFFFFFFFF
(1648583718.340756) can1 18FEDF00#83A0287D7DFFFFF0
(1648583718.347364) can1 0CF00300#D1000FFFFF5F607D
(1648583718.349241) can1 0CF00400#107D84BE12000F84
(1648583718.351592) can1 18F00F00#00FBFFFFFFFFFFFF
(1648583718.360929) can1 18FEDF00#83A0287D7DFFFFF0
(1648583718.361551) can1 0CF00A00#C40AAB09FFFFFFFF
(1648583718.362115) can1 18FEF200#320000004008FAFF
(1648583718.366794) can1 0CF00300#D1000FFFFF5F607D
(1648583718.369018) can1 0CF00400#007D84BE12000F84
(1648583718.370303) can1 18FEF121#C3FFFFC300FFFFF0
(1648583718.380722) can1 18FEDF00#83A0287D7DFFFFF0
(1648583718.381917) can1 18F00E00#00FBFFFFFFFFFFFF
(1648583718.386998) can1 0CF00300#D1000EFFFF5F607D
(1648583718.389716) can1 0CF00400#007D84C112000F84
(1648583718.395411) can1 18FEF100#FF0000FCFF001FCF
(1648583718.400998) can1 18FEDF00#83A0287D7DFFFFF0
(1648583718.401638) can1 18F00F00#00FBFFFFFFFFFFFF
(1648583718.407132) can1 0CF00300#D1000EFFFF5F617D
(1648583718.409538) can1 0CF00400#707D83C212000F84
(1648583718.410490) can1 0CF00A00#C40AA109FFFFFFFF
(1648583718.416230) can1 1CFE9200#FFA085FFFFFF0400
(1648583718.416850) can1 18FEFA0B#00FFFFFFFFFFFFFF
(1648583718.420723) can1 18FEDF00#83A0287D7DFFFFF0
(1648583718.426762) can1 0CF00300#D1000EFFFF5F617D
(1648583718.429028) can1 0CF00400#707D83C012000F84
(1648583718.431019) can1 18F00E00#00FBFFFFFFFFFFFF
(1648583718.440965) can1 18FEDF00#83A0287D7DFFFFF0
(1648583718.447495) can1 0CF00300#D1000EFFFF5F617D
(1648583718.449297) can1 0CF00400#007D84BC12000F84
(1648583718.451020) can1 18F00F00#00FBFFFFFFFFFFFF
(1648583718.460963) can1 18FEDF00#83A0287D7DFFFFF0
(1648583718.461548) can1 0CF00A00#C40AB409FFFFFFFF
(1648583718.462126) can1 18FEF200#320000004008FAFF
(1648583718.466638) can1 0CF00300#D1000EFFFF5F617D
(1648583718.468869) can1 0CF00400#007D84BC12000F84
(1648583718.471939) can1 18FEF121#C3FFFFC300FFFFF0
(1648583718.480056) can1 18FEF721#FFFFFFFF1B01FFFF
(1648583718.481205) can1 18FEFA21#00004FFFFFFFFFFF
(1648583718.482922) can1 18FEDF00#83A0287D7DFFFFF0
(1648583718.484091) can1 18F00E00#00FBFFFFFFFFFFFF
(1648583718.487251) can1 0CF00300#D1000EFFFF5F617D
(1648583718.489643) can1 0CF00400#107D84B912000F84
(1648583718.495567) can1 18FEF100#FF0000FCFF001FCF
(1648583718.496163) can1 18FEEF00#FFFFFF3F0B7DFFFA
(1648583718.501292) can1 18FEDF00#83A0287D7DFFFFF0
(1648583718.501903) can1 18F00F00#00FBFFFFFFFFFFFF
(1648583718.507086) can1 0CF00300#D1000FFFFF5F617D
(1648583718.509447) can1 0CF00400#107D84B812000F84
(1648583718.510402) can1 0CF00A00#BA0A9809FFFFFFFF
(1648583718.515708) can1 1CFE9200#FFB085FFFFFF0400
(1648583718.518122) can1 18FEFA0B#00FFFFFFFFFFFFFF
(1648583718.521070) can1 18FEDF00#83A0287D7DFFFFF0
(1648583718.526942) can1 0CF00300#D1000FFFFF5F607D
(1648583718.529169) can1 0CF00400#107D84BE12000F84
(1648583718.531021) can1 18F00E00#00FBFFFFFFFFFFFF
(1648583718.540715) can1 18FEDF00#83A0287D7DFFFFF0
(1648583718.541880) can1 18FEF600#FF004631FFFFFFFF
(1648583718.547007) can1 0CF00300#D1000FFFFF5F607D
(1648583718.549265) can1 0CF00400#007D84C412000F84
(1648583718.551015) can1 18F00F00#00FBFFFFFFFFFFFF
(1648583718.560910) can1 18FEDF00#83A0287D7DFFFFF0
(1648583718.561551) can1 0CF00A00#BA0AAB09FFFFFFFF
(1648583718.562157) can1 18FEF200#320000004008FAFF
(1648583718.566823) can1 0CF00300#D1000EFFFF5F607D
(1648583718.569073) can1 0CF00400#707D83C512000F84
(1648583718.570336) can1 18FEF121#C3FFFFC300FFFFF0
(1648583718.580715) can1 18FEDF00#83A0287D7DFFFFF0
(1648583718.581337) can1 18F00E00#00FBFFFFFFFFFFFF
(1648583718.587000) can1 0CF00300#D1000EFFFF5F607D
(1648583718.589357) can1 0CF00400#707D83C712000F84
(1648583718.595414) can1 18FEF100#FF0000FCFF001FCF
(1648583718.601017) can1 18FEDF00#83A0287D7DFFFFF0
(1648583718.601657) can1 18F00F00#00FBFFFFFFFFFFFF
(1648583718.607147) can1 0CF00300#D1000EFFFF5F617D
(1648583718.609542) can1 0CF00400#707D83C612000F84
(1648583718.610544) can1 0CF00A00#BA0AB409FFFFFFFF
(1648583718.616819) can1 1CFE9200#FFC085FFFFFF0300
(1648583718.617445) can1 18FEFA0B#00FFFFFFFFFFFFFF
(1648583718.620724) can1 18FEDF00#83A0287D7DFFFFF0
(1648583718.626758) can1 0CF00300#D1000EFFFF5F617D
(1648583718.629036) can1 0CF00400#707D83C012000F84
(1648583718.631015) can1 18F00E00#00FBFFFFFFFFFFFF
(1648583718.641008) can1 18FEDF00#83A0287D7DFFFFF0
(1648583718.647004) can1 0CF00300#D1000EFFFF5F617D
(1648583718.649313) can1 0CF00400#707D83C112000F84
(1648583718.651025) can1 18F00F00#00FBFFFFFFFFFFFF
(1648583718.660950) can1 18FEDF00#83A0287D7DFFFFF0
(1648583718.661571) can1 0CF00A00#BA0AB409FFFFFFFF
(1648583718.662119) can1 18FEF200#310000004008FAFF
(1648583718.666680) can1 0CF00300#D1000EFFFF5F617D
(1648583718.668938) can1 0CF00400#707D83C312000F84
(1648583718.670182) can1 18FEF121#C3FFFFC300FFFFF0
(1648583718.680998) can1 18FDB400#462CD92CFFFFFFFF
(1648583718.681622) can1 18FEDF00#83A0287D7DFFFFF0
(1648583718.682279) can1 18F00E00#00FBFFFFFFFFFFFF
(1648583718.687293) can1 0CF00300#D1000EFFFF5F617D
(1648583718.689529) can1 0CF00400#007D84BD12000F84
(1648583718.695419) can1 18FEF100#FF0000FCFF001FCF
(1648583718.700711) can1 18FEDF00#83A0287D7DFFFFF0
(1648583718.701351) can1 18F00F00#00FBFFFFFFFFFFFF
(1648583718.707107) can1 18FDB300#FFFFF02BFFFFFFFF
(1648583718.707713) can1 0CF00300#D1000EFFFF5F617D
(1648583718.709521) can1 0CF00400#107D84BA12000F84
(1648583718.710416) can1 0CF00A00#BA0A9809FFFFFFFF
(1648583718.715703) can1 1CFE9200#FFC085FFFFFF0300
(1648583718.718133) can1 18FEFA0B#00FFFFFFFFFFFFFF
(1648583718.721030) can1 18FEDF00#83A0287D7DFFFFF0
(1648583718.726946) can1 0CF00300#D1000FFFFF5F617D
(1648583718.729217) can1 0CF00400#107D84BF12000F84
(1648583718.730388) can1 18FDB200#FFFFFFFF0000FFFF
(1648583718.731640) can1 18F00E00#00FBFFFFFFFFFFFF
(1648583718.740767) can1 18FEDF00#83A0287D7DFFFFF0
(1648583718.747372) can1 0CF00300#D1000FFFFF5F607D
(1648583718.749212) can1 0CF00400#007D84C612000F84
(1648583718.751625) can1 18F00F00#00FBFFFFFFFFFFFF
(1648583718.760939) can1 18FEDF00#83A0287D7DFFFFF0
(1648583718.761582) can1 0CF00A00#BA0ABD09FFFFFFFF
(1648583718.762130) can1 18FEF200#310000004008FAFF
(1648583718.766780) can1 18FEF700#FFFFFFFF1A01FFFF
(1648583718.767925) can1 0CF00300#D1000EFFFF5F607D
(1648583718.770344) can1 0CF00400#707D83C612000F84
(1648583718.770821) can1 18FEF121#C3FFFFC300FFFFF0
(1648583718.780739) can1 18FEDF00#83A0287D7DFFFFF0
(1648583718.781371) can1 18F00E00#00FBFFFFFFFFFFFF
(1648583718.787006) can1 0CF00300#D1000EFFFF5F607D
(1648583718.789377) can1 0CF00400#707D83C512000F84
(1648583718.796047) can1 18FEF100#FF0000FCFF001FCF
(1648583718.801776) can1 18FEDF00#83A0287D7DFFFFF0
(1648583718.802386) can1 18F00F00#00FBFFFFFFFFFFFF
(1648583718.807145) can1 0CF00300#D1000EFFFF5F617D
(1648583718.809549) can1 0CF00400#707D83C712000F84
(1648583718.810442) can1 0CF00A00#BA0AAB09FFFFFFFF
(1648583718.816285) can1 1CFE9200#FFC085FFFFFF0300
(1648583718.816907) can1 18FEFA0B#00FFFFFFFFFFFFFF
(1648583718.820816) can1 18FEDF00#83A0287D7DFFFFF0
(1648583718.826769) can1 0CF00300#D1000EFFFF5F617D
(1648583718.829039) can1 0CF00400#707D83C212000F84
(1648583718.831036) can1 18F00E00#00FBFFFFFFFFFFFF
(1648583718.841030) can1 18FEDF00#83A0287D7DFFFFF0
(1648583718.847030) can1 0CF00300#D1000EFFFF5F617D
(1648583718.849336) can1 0CF00400#707D83C012000F84
(1648583718.851037) can1 18F00F00#00FBFFFFFFFFFFFF
(1648583718.860994) can1 18FEDF00#83A0287D7DFFFFF0
(1648583718.861583) can1 0CF00A00#BA0ABD09FFFFFFFF
(1648583718.862154) can1 18FEF200#310000004008FAFF
(1648583718.866688) can1 0CF00300#D1000EFFFF5F617D
(1648583718.868902) can1 0CF00400#007D84BE12000F84
(1648583718.870305) can1 18FEF121#C3FFFFC300FFFFF0
(1648583718.881024) can1 18FEDF00#83A0287D7DFFFFF0
(1648583718.881644) can1 18F00E00#00FBFFFFFFFFFFFF
(1648583718.887274) can1 0CF00300#D1000EFFFF5F617D
(1648583718.889561) can1 0CF00400#007D84BA12000F84
(1648583718.895429) can1 18FEF100#FF0000FCFF001FCF
(1648583718.900787) can1 18FEDF00#83A0287D7DFFFFF0
(1648583718.901421) can1 18F00F00#00FBFFFFFFFFFFFF
(1648583718.907148) can1 0CF00300#D1000EFFFF5F617D
(1648583718.909537) can1 0CF00400#107D84BA12000F84
(1648583718.910429) can1 0CF00A00#BA0A9809FFFFFFFF
(1648583718.915698) can1 1CFE9200#FFBC85FFFFFF0300
(1648583718.918661) can1 18FEFA0B#00FFFFFFFFFFFFFF
(1648583718.921147) can1 18FEDF00#83A0287D7DFFFFF0
(1648583718.926915) can1 0CF00300#D1000FFFFF5F607D
(1648583718.929217) can1 0CF00400#007D84BE12000F84
(1648583718.931029) can1 18F00E00#00FBFFFFFFFFFFFF
(1648583718.940852) can1 18FEDF00#83A0287D7DFFFFF0
(1648583718.947971) can1 0CF00300#D1000FFFFF5F607D
(1648583718.949221) can1 0CF00400#007D84C312000F84
(1648583718.951067) can1 18F00F00#00FBFFFFFFFFFFFF
(1648583718.960935) can1 18FEDF00#83A0287D7DFFFFF0
(1648583718.961572) can1 0CF00A00#BA0ABD09FFFFFFFF
(1648583718.962143) can1 18FEF200#310000004008FAFF
(1648583718.966840) can1 0CF00300#D1000EFFFF5F607D
(1648583718.969111) can1 0CF00400#707D83C512000F84
(1648583718.970336) can1 18FEF121#C3FFFFC300FFFFF0
(1648583718.980735) can1 18FEDF00#83A0287D7DFFFFF0
(1648583718.981351) can1 18F00E00#00FBFFFFFFFFFFFF
(1648583718.987285) can1 0CF00300#D1000EFFFF5F617D
(1648583718.989444) can1 0CF00400#707D83C712000F84
(1648583718.995492) can1 18FEF100#FF0000FCFF001FCF
(1648583718.996032) can1 18FEEF00#FFFFFF3F0D7DFFFA
(1648583719.001047) can1 18FEDF00#83A0287D7DFFFFF0
(1648583719.001668) can1 18F00F00#00FBFFFFFFFFFFFF
(1648583719.007135) can1 0CF00300#D1000EFFFF5F617D
(1648583719.009571) can1 0CF00400#707D83C712000F84
(1648583719.010547) can1 0CF00A00#BA0ABD09FFFFFFFF
(1648583719.016259) can1 1CFE9200#FFBC85FFFFFF0300
(1648583719.016882) can1 18FEFA0B#00FFFFFFFFFFFFFF
(1648583719.020821) can1 18FEDF00#83A0287D7DFFFFF0
(1648583719.026770) can1 0CF00300#D1000EFFFF5F617D
(1648583719.029079) can1 0CF00400#707D83C012000F84
(1648583719.031543) can1 18F00E00#00FBFFFFFFFFFFFF
(1648583719.041060) can1 18FEDF00#83A0287D7DFFFFF0
(1648583719.042321) can1 18FEF600#FF004631FFFFFFFF
(1648583719.047451) can1 0CF00300#D1000EFFFF5F627D
(1648583719.049362) can1 0CF00400#007D84BF12000F84
(1648583719.051050) can1 18F00F00#00FBFFFFFFFFFFFF
(1648583719.061014) can1 18FEDF00#83A0287D7DFFFFF0
(1648583719.061595) can1 0CF00A00#BA0ABD09FFFFFFFF
(1648583719.062173) can1 18FEF200#310000004008FAFF
(1648583719.066693) can1 0CF00300#D1000EFFFF5F617D
(1648583719.069025) can1 0CF00400#007D84C112000F84
(1648583719.070328) can1 18FEF121#C3FFFFC300FFFFF0
(1648583719.081606) can1 18FEDF00#83A0287D7DFFFFF0
(1648583719.082335) can1 18F00E00#00FBFFFFFFFFFFFF
(1648583719.087302) can1 0CF00300#D1000EFFFF5F617D
(1648583719.089570) can1 0CF00400#007D84BA12000F84
(1648583719.095445) can1 18FEF100#FF0000FCFF001FCF
(1648583719.100788) can1 18FEDF00#83A0287D7DFFFFF0
(1648583719.101409) can1 18F00F00#00FBFFFFFFFFFFFF
(1648583719.107351) can1 0CF00300#D1000EFFFF5F617D
(1648583719.109448) can1 0CF00400#107D84B612000F84
(1648583719.110417) can1 0CF00A00#BA0AA109FFFFFFFF
(1648583719.116513) can1 18FD7C00#E08B0100C34F03FF
(1648583719.117704) can1 1CFE9200#FFC085FFFFFF0300
(1648583719.118862) can1 18FEFA0B#00FFFFFFFFFFFFFF
(1648583719.121098) can1 18FEDF00#83A0287D7DFFFFF0
(1648583719.126945) can1 0CF00300#D1000FFFFF5F617D
(1648583719.129214) can1 0CF00400#107D84BE12000F84
(1648583719.131051) can1 18F00E00#00FBFFFFFFFFFFFF
(1648583719.140771) can1 18FEDF00#83A0287D7DFFFFF0
(1648583719.144651) can1 18FEFA21#00004FFFFFFFFFFF
(1648583719.146990) can1 0CF00300#D1000FFFFF5F607D
(1648583719.149216) can1 0CF00400#007D84C612000F84
(1648583719.151048) can1 18F00F00#00FBFFFFFFFFFFFF
(1648583719.160963) can1 18FEDF00#83A0287D7DFFFFF0
(1648583719.161588) can1 0CF00A00#BA0AB409FFFFFFFF
(1648583719.162158) can1 18FEF200#310000004008FAFF
(1648583719.166882) can1 0CF00300#D1000EFFFF5F607D
(1648583719.169178) can1 0CF00400#707D83C612000F84
(1648583719.170354) can1 18FEF121#C3FFFFC300FFFFF0
(1648583719.180736) can1 18FDB400#462CD92CFFFFFFFF
(1648583719.181312) can1 18FEDF00#83A0287D7DFFFFF0
(1648583719.181909) can1 18F00E00#00FBFFFFFFFFFFFF
(1648583719.187051) can1 0CF00300#D1000EFFFF5F607D
(1648583719.189419) can1 0CF00400#707D83C612000F84
(1648583719.195464) can1 18FEF100#FF0000FCFF001FCF
(1648583719.196059) can1 18FEEE00#68FF2F2AFFFFFFFF
(1648583719.201061) can1 18FEDF00#83A0287D7DFFFFF0
(1648583719.201662) can1 18F00F00#00FBFFFFFFFFFFFF
(1648583719.207259) can1 18FDB300#FFFFF02BFFFFFFFF
(1648583719.208402) can1 0CF00300#D1000EFFFF5F617D
(1648583719.209616) can1 0CF00400#707D83C712000F84
(1648583719.210591) can1 0CF00A00#BA0AB409FFFFFFFF
(1648583719.216273) can1 1CFE9200#FFC485FFFFFF0300
(1648583719.217468) can1 18FEFA0B#00FFFFFFFFFFFFFF
(1648583719.220804) can1 18FEDF00#83A0287D7DFFFFF0
(1648583719.226785) can1 0CF00300#D1000EFFFF5F617D
(1648583719.229088) can1 0CF00400#707D83C412000F84
(1648583719.230402) can1 18FDB200#FFFFFFFF0000FFFF
(1648583719.231581) can1 18F00E00#00FBFFFFFFFFFFFF
(1648583719.241047) can1 18FEDF00#83A0287D7DFFFFF0
(1648583719.247346) can1 0CF00300#D1000EFFFF5F617D
(1648583719.249348) can1 0CF00400#707D83C112000F84
(1648583719.251649) can1 18F00F00#00FBFFFFFFFFFFFF
(1648583719.260978) can1 18FEDF00#83A0287D7DFFFFF0
(1648583719.261589) can1 0CF00A00#BA0ABD09FFFFFFFF
(1648583719.262138) can1 18FEF200#310000004108FAFF
(1648583719.266723) can1 0CF00300#D1000EFFFF5F617D
(1648583719.269029) can1 0CF00400#007D84BD12000F84
(1648583719.270802) can1 18FEF121#C3FFFFC300FFFFF0
(1648583719.281078) can1 18FEDF00#83A0287D7DFFFFF0
(1648583719.281658) can1 18F00E00#00FBFFFFFFFFFFFF
(1648583719.287300) can1 0CF00300#D1000EFFFF5F617D
(1648583719.288509) can1 18FEF500#C6FFFFF922FFFFFF
(1648583719.289545) can1 0CF00400#007D84BB12000F84
(1648583719.296129) can1 18FEF100#FF0000FCFF001FCF
(1648583719.301309) can1 18FEDF00#83A0287D7DFFFFF0
(1648583719.302490) can1 18F00F00#00FBFFFFFFFFFFFF
(1648583719.307122) can1 0CF00300#D1000EFFFF5F617D
(1648583719.308298) can1 18FEA400#FFFF2426FFFF2D29
(1648583719.309554) can1 0CF00400#107D84BA12000F84
(1648583719.310438) can1 0CF00A00#BA0A9809FFFFFFFF
(1648583719.315730) can1 1CFE9200#FFC085FFFFFF0300
(1648583719.318093) can1 18FEFA0B#00FFFFFFFFFFFFFF
(1648583719.321113) can1 18FEDF00#83A0287D7DFFFFF0
(1648583719.326946) can1 0CF00300#D1000FFFFF5F617D
(1648583719.329200) can1 0CF00400#007D84BE12000F84
(1648583719.330980) can1 18F00E00#00FBFFFFFFFFFFFF
(1648583719.340800) can1 18FEDF00#83A0287D7DFFFFF0
(1648583719.347408) can1 0CF00300#D1000EFFFF5F607D
(1648583719.349246) can1 0CF00400#007D84C312000F84
(1648583719.351674) can1 18F00F00#00FBFFFFFFFFFFFF
(1648583719.361063) can1 18FEDF00#83A0287D7DFFFFF0
(1648583719.361645) can1 0CF00A00#BA0ABD09FFFFFFFF
(1648583719.362293) can1 18FEF200#310000004008FAFF
(1648583719.366839) can1 0CF00300#D1000EFFFF5F607D
(1648583719.369144) can1 0CF00400#707D83C412000F84
(1648583719.370330) can1 18FEF121#C3FFFFC300FFFFF0
(1648583719.380740) can1 18FEDF00#83A0287D7DFFFFF0
(1648583719.381943) can1 18F00E00#00FBFFFFFFFFFFFF
(1648583719.387049) can1 0CF00300#D1000EFFFF5F617D
(1648583719.389836) can1 0CF00400#707D83C712000F84
(1648583719.395500) can1 18FEF100#FF0000FCFF001FCF
(1648583719.401072) can1 18FEDF00#83A0287D7DFFFFF0
(1648583719.401673) can1 18F00F00#00FBFFFFFFFFFFFF
(1648583719.407204) can1 0CF00300#D1000EFFFF5F617D
(1648583719.409572) can1 0CF00400#707D83C712000F84
(1648583719.410560) can1 0CF00A00#BA0AB409FFFFFFFF
(1648583719.416197) can1 1CFE9200#FFB485FFFFFF0300
(1648583719.416820) can1 18FEFA0B#00FFFFFFFFFFFFFF
(1648583719.420830) can1 18FEDF00#83A0287D7DFFFFF0
(1648583719.426768) can1 0CF00300#D1000EFFFF5F617D
(1648583719.429096) can1 0CF00400#707D83C112000F84
(1648583719.431067) can1 18F00E00#00FBFFFFFFFFFFFF
(1648583719.441090) can1 18FEDF00#83A0287D7DFFFFF0
(1648583719.447396) can1 0CF00300#D1000EFFFF5F627D
(1648583719.449357) can1 0CF00400#707D83C012000F84
(1648583719.451168) can1 18F00F00#00FBFFFFFFFFFFFF
(1648583719.461003) can1 18FEDF00#83A0287D7DFFFFF0
(1648583719.461613) can1 0CF00A00#BA0ABD09FFFFFFFF
(1648583719.462169) can1 18FEF200#310000004008FAFF
(1648583719.466682) can1 0CF00300#D1000EFFFF5F617D
(1648583719.468986) can1 0CF00400#707D83C012000F84
(1648583719.472070) can1 18FEF121#C3FFFFC300FFFFF0
(1648583719.480692) can1 18FEF721#FFFFFFFF1B01FFFF
(1648583719.481867) can1 18FEFA21#00004FFFFFFFFFFF
(1648583719.482429) can1 18FEDF00#83A0287D7DFFFFF0
(1648583719.483605) can1 18F00E00#00FBFFFFFFFFFFFF
(1648583719.487314) can1 0CF00300#D1000EFFFF5F617D
(1648583719.489687) can1 0CF00400#007D84BB12000F84
(1648583719.495596) can1 18FEF100#FF0000FCFF001FCF
(1648583719.496163) can1 18FEEF00#FFFFFF3F0B7DFFFA
(1648583719.502321) can1 18FEDF00#83A0287D7DFFFFF0
(1648583719.502894) can1 18F00F00#00FBFFFFFFFFFFFF
(1648583719.507254) can1 0CF00300#D1000EFFFF5F617D
(1648583719.509566) can1 0CF00400#107D84B612000F84
(1648583719.510427) can1 0CF00A00#BA0A9809FFFFFFFF
(1648583719.515724) can1 1CFE9200#FFB485FFFFFF0300
(1648583719.518092) can1 18FEFA0B#00FFFFFFFFFFFFFF
(1648583719.521117) can1 18FEDF00#83A0287D7DFFFFF0
(1648583719.526930) can1 0CF00300#D1000FFFFF5F617D
(1648583719.529206) can1 0CF00400#107D84BC12000F84
(1648583719.530996) can1 18F00E00#00FBFFFFFFFFFFFF
(1648583719.540784) can1 18FEDF00#83A0287D7DFFFFF0
(1648583719.541975) can1 18FEF600#FF004631FFFFFFFF
(1648583719.544688) can1 18FEFA21#00004FFFFFFFFFFF
(1648583719.547058) can1 0CF00300#D1000FFFFF5F617D
(1648583719.549289) can1 0CF00400#007D84C412000F84
(1648583719.551067) can1 18F00F00#00FBFFFFFFFFFFFF
(1648583719.561079) can1 18FEDF00#83A0287D7DFFFFF0
(1648583719.561662) can1 0CF00A00#BA0ABD09FFFFFFFF
(1648583719.562317) can1 18FEF200#310000004008FAFF
(1648583719.566855) can1 0CF00300#D1000EFFFF5F607D
(1648583719.569180) can1 0CF00400#707D83C512000F84
(1648583719.570356) can1 18FEF121#C3FFFFC300FFFFF0
(1648583719.580750) can1 18FEDF00#83A0287D7DFFFFF0
(1648583719.581360) can1 18F00E00#00FBFFFFFFFFFFFF
(1648583719.586981) can1 0CF00300#D1000EFFFF5F617D
(1648583719.589373) can1 0CF00400#707D83C512000F84
(1648583719.595452) can1 18FEF100#FF0000FCFF001FCF
(1648583719.601057) can1 18FEDF00#83A0287D7DFFFFF0
(1648583719.601696) can1 18F00F00#00FBFFFFFFFFFFFF
(1648583719.607208) can1 0CF00300#D1000EFFFF5F617D
(1648583719.609578) can1 0CF00400#707D83C512000F84
(1648583719.610641) can1 0CF00A00#BA0AB409FFFFFFFF
(1648583719.616771) can1 1CFE9200#FFBC85FFFFFF0300
(1648583719.617404) can1 18FEFA0B#00FFFFFFFFFFFFFF
(1648583719.621272) can1 18FEDF00#83A0287D7DFFFFF0
(1648583719.626823) can1 0CF00300#D1000EFFFF5F617D
(1648583719.629132) can1 0CF00400#707D83C212000F84
(1648583719.631018) can1 18F00E00#00FBFFFFFFFFFFFF
(1648583719.641068) can1 18FEDF00#83A0287D7DFFFFF0
(1648583719.647667) can1 0CF00300#D1000EFFFF5F617D
(1648583719.649376) can1 0CF00400#707D83C012000F84
(1648583719.651110) can1 18F00F00#00FBFFFFFFFFFFFF
(1648583719.660991) can1 18FEDF00#83A0287D7DFFFFF0
(1648583719.661575) can1 0CF00A00#BA0ABD09FFFFFFFF
(1648583719.662154) can1 18FEF200#310000004008FAFF
(1648583719.666693) can1 0CF00300#D1000EFFFF5F617D
(1648583719.669035) can1 0CF00400#707D83BC12000F84
(1648583719.670329) can1 18FEF121#C3FFFFC300FFFFF0
(1648583719.680967) can1 18FDB400#492CD92CFFFFFFFF
(1648583719.681568) can1 18FEDF00#83A0287D7DFFFFF0
(1648583719.682171) can1 18F00E00#00FBFFFFFFFFFFFF
(1648583719.687326) can1 0CF00300#D1000EFFFF5F617D
(1648583719.689566) can1 0CF00400#007D84B912000F84
(1648583719.695480) can1 18FEF100#FF0000FCFF001FCF
(1648583719.700807) can1 18FEDF00#83A0287D7DFFFFF0
(1648583719.701434) can1 18F00F00#00FBFFFFFFFFFFFF
(1648583719.707127) can1 18FDB300#FFFFF32BFFFFFFFF
(1648583719.707722) can1 0CF00300#D1000EFFFF5F617D
(1648583719.709495) can1 0CF00400#107D84B712000F84
(1648583719.710561) can1 0CF00A00#BA0A9809FFFFFFFF
(1648583719.715681) can1 1CFE9200#FFBC85FFFFFF0300
(1648583719.717979) can1 18FEFA0B#00FFFFFFFFFFFFFF
(1648583719.721174) can1 18FEDF00#83A0287D7DFFFFF0
(1648583719.727421) can1 0CF00300#D1000FFFFF5F617D
(1648583719.729309) can1 0CF00400#107D84BD12000F84
(1648583719.730415) can1 18FDB200#FFFFFFFF0000FFFF
(1648583719.731606) can1 18F00E00#00FBFFFFFFFFFFFF
(1648583719.740797) can1 18FEDF00#83A0287D7DFFFFF0
(1648583719.747410) can1 0CF00300#D1000FFFFF5F617D
(1648583719.749230) can1 0CF00400#007D84C312000F84
(1648583719.751672) can1 18F00F00#00FBFFFFFFFFFFFF
(1648583719.761097) can1 18FEDF00#83A0287D7DFFFFF0
(1648583719.761690) can1 0CF00A00#BA0AB409FFFFFFFF
(1648583719.762314) can1 18FEF200#310000004008FAFF
(1648583719.765297) can1 18FEFA21#00004FFFFFFFFFFF
(1648583719.766813) can1 18FEF700#FFFFFFFF1A01FFFF
(1648583719.768007) can1 0CF00300#D1000EFFFF5F607D
(1648583719.769153) can1 0CF00400#007D84C312000F84
(1648583719.770333) can1 18FEF121#C3FFFFC300FFFFF0
(1648583719.780775) can1 18FEDF00#83A0287D7DFFFFF0
(1648583719.781370) can1 18F00E00#00FBFFFFFFFFFFFF
(1648583719.786992) can1 0CF00300#D1000EFFFF5F617D
(1648583719.789361) can1 0CF00400#707D83C612000F84
(1648583719.796073) can1 18FEF100#FF0000FCFF001FCF
(1648583719.801387) can1 18FEDF00#83A0287D7DFFFFF0
(1648583719.802010) can1 18F00F00#00FBFFFFFFFFFFFF
(1648583719.807228) can1 0CF00300#D1000EFFFF5F617D
(1648583719.809591) can1 0CF00400#707D83C812000F84
(1648583719.810563) can1 0CF00A00#BA0ABD09FFFFFFFF
(1648583719.816219) can1 1CFE9200#FFBC85FFFFFF0300
(1648583719.816844) can1 18FEFA0B#00FFFFFFFFFFFFFF
(1648583719.820853) can1 18FEDF00#83A0287D7DFFFFF0
(1648583719.826790) can1 0CF00300#D1000EFFFF5F617D
(1648583719.829122) can1 0CF00400#707D83C212000F84
(1648583719.831084) can1 18F00E00#00FBFFFFFFFFFFFF
(1648583719.841073) can1 18FEDF00#83A0287D7DFFFFF0
(1648583719.847154) can1 0CF00300#D1000EFFFF5F627D
(1648583719.849361) can1 0CF00400#707D83BF12000F84
(1648583719.851114) can1 18F00F00#00FBFFFFFFFFFFFF
(1648583719.860997) can1 18FEDF00#83A0287D7DFFFFF0
(1648583719.861582) can1 0CF00A00#BA0ABD09FFFFFFFF
(1648583719.862158) can1 18FEF200#310000004008FAFF
(1648583719.865286) can1 18FEFA21#00004FFFFFFFFFFF
(1648583719.866707) can1 0CF00300#D1000EFFFF5F627D
(1648583719.869002) can1 0CF00400#707D83BE12000F84
(1648583719.870340) can1 18FEF121#C3FFFFC300FFFFF0
(1648583719.881077) can1 18FEDF00#83A0287D7DFFFFF0
(1648583719.881714) can1 18F00E00#00FBFFFFFFFFFFFF
(1648583719.887562) can1 0CF00300#D1000EFFFF5F617D
(1648583719.889580) can1 0CF00400#007D84BB12000F84
(1648583719.895473) can1 18FEF100#FF0000FCFF001FCF
(1648583719.900819) can1 18FEDF00#83A0287D7DFFFFF0
(1648583719.901436) can1 18F00F00#00FBFFFFFFFFFFFF
(1648583719.907178) can1 0CF00300#D1000EFFFF5F617D
(1648583719.909494) can1 0CF00400#107D84B712000F84
(1648583719.910575) can1 0CF00A00#BA0AA109FFFFFFFF
(1648583719.915685) can1 1CFE9200#FFB485FFFFFF0300
(1648583719.918623) can1 18FEFA0B#00FFFFFFFFFFFFFF
(1648583719.921152) can1 18FEDF00#83A0287D7DFFFFF0
(1648583719.926940) can1 0CF00300#D1000FFFFF5F617D
(1648583719.929258) can1 0CF00400#107D84BC12000F84
(1648583719.931089) can1 18F00E00#00FBFFFFFFFFFFFF
(1648583719.939734) can1 18FEFA21#00004FFFFFFFFFFF
(1648583719.940801) can1 18FEDF00#83A0287D7DFFFFF0
(1648583719.947820) can1 0CF00300#D1000FFFFF5F617D
(1648583719.949274) can1 0CF00400#007D84C412000F84
(1648583719.951193) can1 18F00F00#00FBFFFFFFFFFFFF
(1648583719.961020) can1 18FEDF00#83A0287D7DFFFFF0
(1648583719.961655) can1 0CF00A00#BA0AB409FFFFFFFF
(1648583719.962286) can1 18FEF200#310000004008FAFF
(1648583719.966854) can1 0CF00300#D1000EFFFF5F607D
(1648583719.969157) can1 0CF00400#707D83C612000F84
(1648583719.970399) can1 18FEF121#C3FFFFC300FFFFF0
(1648583719.980781) can1 18FEDF00#83A0287D7DFFFFF0
(1648583719.981384) can1 18F00E00#00FBFFFFFFFFFFFF
(1648583719.987190) can1 0CF00300#D1000EFFFF5F607D
(1648583719.989477) can1 0CF00400#707D83C712000F84
(1648583719.995470) can1 18FEF100#FF0000FCFF001FCF
(1648583719.996089) can1 18FEEF00#FFFFFF3F0A7DFFFA
(1648583720.001082) can1 18FEDF00#83A0287D7DFFFFF0
(1648583720.001703) can1 18F00F00#00FBFFFFFFFFFFFF
(1648583720.007208) can1 0CF00300#D1000EFFFF5F617D
(1648583720.009597) can1 0CF00400#707D83C512000F84
(1648583720.010579) can1 0CF00A00#BA0AB409FFFFFFFF
(1648583720.016216) can1 1CFE9200#FFB085FFFFFF0300
(1648583720.016833) can1 18FEFA0B#00FFFFFFFFFFFFFF
(1648583720.020854) can1 18FEDF00#83A0287D7DFFFFF0
(1648583720.026817) can1 0CF00300#D1000EFFFF5F617D
(1648583720.029113) can1 0CF00400#707D83C212000F84
(1648583720.031010) can1 18F00E00#00FBFFFFFFFFFFFF
(1648583720.041105) can1 18FEDF00#83A0287D7DFFFFF0
(1648583720.042322) can1 18FEF600#FF004631FFFFFFFF
(1648583720.047352) can1 0CF00300#D1000EFFFF5F617D
(1648583720.049402) can1 0CF00400#707D83C212000F84
(1648583720.051120) can1 18F00F00#00FBFFFFFFFFFFFF
(1648583720.061000) can1 18FEDF00#83A0287D7DFFFFF0
(1648583720.061588) can1 0CF00A00#BA0AC709FFFFFFFF
(1648583720.062166) can1 18FEF200#310000004008FAFF
(1648583720.066724) can1 0CF00300#D1000EFFFF5F617D
(1648583720.069103) can1 0CF00400#707D83C012000F84
(1648583720.070324) can1 18FEF121#C3FFFFC300FFFFF0
(1648583720.081583) can1 18FEDF00#83A0287D7DFFFFF0
(1648583720.082286) can1 18F00E00#00FBFFFFFFFFFFFF
(1648583720.087589) can1 0CF00300#D1000EFFFF5F617D
(1648583720.089598) can1 0CF00400#007D84BB12000F84
(1648583720.095464) can1 18FEF100#FF0000FCFF001FCF
(1648583720.100817) can1 18FEDF00#83A0287D7DFFFFF0
(1648583720.101435) can1 18F00F00#00FBFFFFFFFFFFFF
(1648583720.105308) can1 18FEFA21#00004FFFFFFFFFFF
(1648583720.107751) can1 0CF00300#D1000EFFFF5F627D
(1648583720.109472) can1 0CF00400#107D84B912000F84
(1648583720.110584) can1 0CF00A00#BA0A9809FFFFFFFF
(1648583720.115704) can1 18FD7C00#E08B0100C34F03FF
(1648583720.116879) can1 1CFE9200#FFB485FFFFFF0300
(1648583720.118683) can1 18FEFA0B#00FFFFFFFFFFFFFF
(1648583720.121137) can1 18FEDF00#83A0287D7DFFFFF0
(1648583720.126961) can1 0CF00300#D1000FFFFF5F617D
(1648583720.129242) can1 0CF00400#107D84BF12000F84
(1648583720.131039) can1 18F00E00#00FBFFFFFFFFFFFF
(1648583720.140807) can1 18FEDF00#83A0287D7DFFFFF0
(1648583720.147312) can1 0CF00300#D1000FFFFF5F617D
(1648583720.149261) can1 0CF00400#707D83C512000F84
(1648583720.151139) can1 18F00F00#00FBFFFFFFFFFFFF
(1648583720.161018) can1 18FEDF00#83A0287D7DFFFFF0
(1648583720.161635) can1 0CF00A00#C40AB409FFFFFFFF
(1648583720.162303) can1 18FEF200#310000004008FAFF
(1648583720.166881) can1 0CF00300#D1000EFFFF5F607D
(1648583720.169162) can1 0CF00400#707D83C212000F84
(1648583720.170343) can1 18FEF121#C3FFFFC300FFFFF0
(1648583720.180748) can1 18FDB400#462CD62CFFFFFFFF
(1648583720.181332) can1 18FEDF00#83A0287D7DFFFFF0
(1648583720.181923) can1 18F00E00#00FBFFFFFFFFFFFF
(1648583720.187093) can1 0CF00300#D1000EFFFF5F617D
(1648583720.189417) can1 0CF00400#707D83C312000F84
(1648583720.195624) can1 18FEF100#FF0000FCFF001FCF
(1648583720.196186) can1 18FEEE00#68FF2F2AFFFFFFFF
(1648583720.201109) can1 18FEDF00#83A0287D7DFFFFF0
(1648583720.201711) can1 18F00F00#00FBFFFFFFFFFFFF
(1648583720.204745) can1 18FEFA21#00004FFFFFFFFFFF
(1648583720.207243) can1 18FDB300#FFFFF02BFFFFFFFF
(1648583720.207824) can1 0CF00300#D1000EFFFF5F617D
(1648583720.209573) can1 0CF00400#707D83C412000F84
(1648583720.210578) can1 0CF00A00#BA0AAB09FFFFFFFF
(1648583720.216279) can1 1CFE9200#FFC085FFFFFF0300
(1648583720.217459) can1 18FEFA0B#00FFFFFFFFFFFFFF
(1648583720.220870) can1 18FEDF00#83A0287D7DFFFFF0
(1648583720.226857) can1 0CF00300#D1000EFFFF5F617D
(1648583720.229150) can1 0CF00400#707D83BE12000F84
(1648583720.230431) can1 18FDB200#FFFFFFFF0000FFFF
(1648583720.231606) can1 18F00E00#00FBFFFFFFFFFFFF
(1648583720.241117) can1 18FEDF00#83A0287D7DFFFFF0
(1648583720.247331) can1 0CF00300#D1000EFFFF5F617D
(1648583720.249312) can1 0CF00400#007D84B912000F84
(1648583720.251703) can1 18F00F00#00FBFFFFFFFFFFFF
(1648583720.261059) can1 18FEDF00#83A0287D7DFFFFF0
(1648583720.261694) can1 0CF00A00#BA0AB409FFFFFFFF
(1648583720.262301) can1 18FEF200#310000004008FAFF
(1648583720.266707) can1 0CF00300#D1000EFFFF5F617D
(1648583720.268958) can1 0CF00400#007D84BA12000F84
(1648583720.270333) can1 18FEF121#C3FFFFC300FFFFF0
(1648583720.281018) can1 18FEDF00#83A0287D7DFFFFF0
(1648583720.281638) can1 18F00E00#00FBFFFFFFFFFFFF
(1648583720.287595) can1 0CF00300#D1000EFFFF5F617D
(1648583720.288750) can1 18FEF500#C6FFFFF922FFFFFF
(1648583720.289593) can1 0CF00400#107D84B812000F84
(1648583720.296113) can1 18FEF100#FF0000FCFF001FCF
(1648583720.301317) can1 18FEDF00#83A0287D7DFFFFF0
(1648583720.302541) can1 18F00F00#00FBFFFFFFFFFFFF
(1648583720.307274) can1 0CF00300#D1000FFFFF5F617D
(1648583720.308441) can1 18FEA400#FFFF2426FFFF2F29
(1648583720.309598) can1 0CF00400#107D84B512000F84
(1648583720.310529) can1 0CF00A00#BA0A9809FFFFFFFF
(1648583720.315710) can1 1CFE9200#FFB085FFFFFF0400
(1648583720.318099) can1 18FEFA0B#00FFFFFFFFFFFFFF
(1648583720.321138) can1 18FEDF00#83A0287D7DFFFFF0
(1648583720.326973) can1 0CF00300#D1000FFFFF5F607D
(1648583720.329244) can1 0CF00400#107D84B812000F84
(1648583720.331009) can1 18F00E00#00FBFFFFFFFFFFFF
(1648583720.340827) can1 18FEDF00#83A0287D7DFFFFF0
(1648583720.347313) can1 0CF00300#D1000FFFFF5F607D
(1648583720.349307) can1 0CF00400#007D84BF12000F84
(1648583720.351659) can1 18F00F00#00FBFFFFFFFFFFFF
(1648583720.361040) can1 18FEDF00#83A0287D7DFFFFF0
(1648583720.361641) can1 0CF00A00#BA0AAB09FFFFFFFF
(1648583720.362301) can1 18FEF200#310000004008FAFF
(1648583720.366876) can1 0CF00300#D1000FFFFF5F607D
(1648583720.369132) can1 0CF00400#007D84C212000F84
(1648583720.370332) can1 18FEF121#C3FFFFC300FFFFF0
(1648583720.380766) can1 18FEDF00#83A0287D7DFFFFF0
(1648583720.381976) can1 18F00E00#00FBFFFFFFFFFFFF
(1648583720.387021) can1 0CF00300#D1000EFFFF5F607D
(1648583720.389958) can1 0CF00400#707D83C212000F84
(1648583720.395866) can1 18FEF100#FF0000FCFF001FCF
(1648583720.401115) can1 18FEDF00#83A0287D7DFFFFF0
(1648583720.401722) can1 18F00F00#00FBFFFFFFFFFFFF
(1648583720.407250) can1 0CF00300#D1000EFFFF5F617D
(1648583720.409606) can1 0CF00400#007D84C012000F84
(1648583720.410587) can1 0CF00A00#BA0AAB09FFFFFFFF
(1648583720.416295) can1 1CFE9200#FFB085FFFFFF0400
(1648583720.416914) can1 18FEFA0B#00FFFFFFFFFFFFFF
(1648583720.420860) can1 18FEDF00#83A0287D7DFFFFF0
(1648583720.426804) can1 0CF00300#D1000EFFFF5F617D
(1648583720.429190) can1 0CF00400#707D83BF12000F84
(1648583720.431111) can1 18F00E00#00FBFFFFFFFFFFFF
(1648583720.441148) can1 18FEDF00#83A0287D7DFFFFF0
(1648583720.447349) can1 0CF00300#D1000EFFFF5F617D
(1648583720.449350) can1 0CF00400#007D84BF12000F84
(1648583720.451142) can1 18F00F00#00FBFFFFFFFFFFFF
(1648583720.461007) can1 18FEDF00#83A0287D7DFFFFF0
(1648583720.461621) can1 0CF00A00#BA0ABD09FFFFFFFF
(1648583720.462175) can1 18FEF200#320000004008FAFF
(1648583720.466714) can1 0CF00300#D1000EFFFF5F617D
(1648583720.469021) can1 0CF00400#707D83BF12000F84
(1648583720.472120) can1 18FEF121#C3FFFFC300FFFFF0
(1648583720.480783) can1 18FEF721#FFFFFFFF1B01FFFF
(1648583720.481943) can1 18FEFA21#00004FFFFFFFFFFF
(1648583720.482505) can1 18FEDF00#83A0287D7DFFFFF0
(1648583720.483682) can1 18F00E00#00FBFFFFFFFFFFFF
(1648583720.487595) can1 0CF00300#D1000EFFFF5F617D
(1648583720.489621) can1 0CF00400#007D84B912000F84
(1648583720.495607) can1 18FEF100#FF0000FCFF001FCF
(1648583720.496203) can1 18FEEF00#FFFFFF3F087DFFFA
(1648583720.501184) can1 18FEDF00#83A0287D7DFFFFF0
(1648583720.501815) can1 18F00F00#00FBFFFFFFFFFFFF
(1648583720.507123) can1 0CF00300#D1000EFFFF5F617D
(1648583720.509479) can1 0CF00400#107D84B712000F84
(1648583720.510457) can1 0CF00A00#B10AA109FFFFFFFF
(1648583720.515701) can1 1CFE9200#FFBC85FFFFFF0300
(1648583720.518020) can1 18FEFA0B#00FFFFFFFFFFFFFF
(1648583720.521151) can1 18FEDF00#83A0287D7DFFFFF0
(1648583720.526970) can1 0CF00300#D1000FFFFF5F617D
(1648583720.529263) can1 0CF00400#107D84BF12000F84
(1648583720.531030) can1 18F00E00#00FBFFFFFFFFFFFF
(1648583720.540831) can1 18FEDF00#83A0287D7DFFFFF0
(1648583720.542005) can1 18FEF600#FF004631FFFFFFFF
(1648583720.547036) can1 0CF00300#D1000FFFFF5F607D
(1648583720.549329) can1 0CF00400#707D83C512000F84
(1648583720.551123) can1 18F00F00#00FBFFFFFFFFFFFF
(1648583720.561024) can1 18FEDF00#83A0287D7DFFFFF0
(1648583720.561639) can1 0CF00A00#B10AC709FFFFFFFF
(1648583720.562306) can1 18FEF200#320000004008FAFF
(1648583720.566886) can1 0CF00300#D1000EFFFF5F607D
(1648583720.569212) can1 0CF00400#707D83C312000F84
(1648583720.570376) can1 18FEF121#C3FFFFC300FFFFF0
(1648583720.580770) can1 18FEDF00#83A0287D7DFFFFF0
(1648583720.581385) can1 18F00E00#00FBFFFFFFFFFFFF
(1648583720.587021) can1 0CF00300#D1000EFFFF5F617D
(1648583720.589415) can1 0CF00400#707D83C612000F84
(1648583720.595474) can1 18FEF100#FF0000FCFF001FCF
(1648583720.601124) can1 18FEDF00#83A0287D7DFFFFF0
(1648583720.601758) can1 18F00F00#00FBFFFFFFFFFFFF
(1648583720.607251) can1 0CF00300#D1000EFFFF5F617D
(1648583720.609626) can1 0CF00400#707D83C612000F84
(1648583720.610686) can1 0CF00A00#B10ABD09FFFFFFFF
(1648583720.616848) can1 1CFE9200#FFC085FFFFFF0300
(1648583720.617489) can1 18FEFA0B#00FFFFFFFFFFFFFF
(1648583720.620885) can1 18FEDF00#83A0287D7DFFFFF0
(1648583720.626846) can1 0CF00300#D1000EFFFF5F617D
(1648583720.629140) can1 0CF00400#707D83C012000F84
(1648583720.631030) can1 18F00E00#00FBFFFFFFFFFFFF
(1648583720.641115) can1 18FEDF00#83A0287D7DFFFFF0
(1648583720.647611) can1 0CF00300#D1000EFFFF5F617D
(1648583720.649347) can1 0CF00400#007D84BB12000F84
(1648583720.651132) can1 18F00F00#00FBFFFFFFFFFFFF
(1648583720.661034) can1 18FEDF00#83A0287D7DFFFFF0
(1648583720.661619) can1 0CF00A00#B10AB409FFFFFFFF
(1648583720.662294) can1 18FEF200#310000004008FAFF
(1648583720.665271) can1 18FEFA21#00004FFFFFFFFFFF
(1648583720.666710) can1 0CF00300#D1000EFFFF5F617D
(1648583720.668997) can1 0CF00400#007D84BB12000F84
(1648583720.670328) can1 18FEF121#C3FFFFC300FFFFF0
(1648583720.681041) can1 18FDB400#492CD62CFFFFFFFF
(1648583720.681626) can1 18FEDF00#83A0287D7DFFFFF0
(1648583720.682314) can1 18F00E00#00FBFFFFFFFFFFFF
(1648583720.687612) can1 0CF00300#D1000EFFFF5F617D
(1648583720.689604) can1 0CF00400#007D84B912000F84
(1648583720.695476) can1 18FEF100#FF0000FCFF001FCF
(1648583720.700848) can1 18FEDF00#83A0287D7DFFFFF0
(1648583720.701483) can1 18F00F00#00FBFFFFFFFFFFFF
(1648583720.707158) can1 18FDB300#FFFFF02BFFFFFFFF
(1648583720.707765) can1 0CF00300#D1000FFFFF5F617D
(1648583720.709539) can1 0CF00400#107D84B812000F84
(1648583720.710468) can1 0CF00A00#B10AAB09FFFFFFFF
(1648583720.715663) can1 1CFE9200#FFC485FFFFFF0400
(1648583720.718063) can1 18FEFA0B#00FFFFFFFFFFFFFF
(1648583720.721136) can1 18FEDF00#83A0287D7DFFFFF0
(1648583720.726993) can1 0CF00300#D1000FFFFF5F607D
(1648583720.729272) can1 0CF00400#107D84BA12000F84
(1648583720.730447) can1 18FDB200#FFFFFFFF0000FFFF
(1648583720.731619) can1 18F00E00#00FBFFFFFFFFFFFF
(1648583720.740812) can1 18FEDF00#83A0287D7DFFFFF0
(1648583720.747329) can1 0CF00300#D1000FFFFF5F607D
(1648583720.749281) can1 0CF00400#007D84C012000F84
(1648583720.751638) can1 18F00F00#00FBFFFFFFFFFFFF
(1648583720.760978) can1 18FEDF00#83A0287D7DFFFFF0
(1648583720.761578) can1 0CF00A00#B10AB409FFFFFFFF
(1648583720.762153) can1 18FEF200#310000004008FAFF
(1648583720.766834) can1 18FEF700#FFFFFFFF1A01FFFF
(1648583720.767975) can1 0CF00300#D1000EFFFF5F607D
(1648583720.769184) can1 0CF00400#007D84C112000F84
(1648583720.770370) can1 18FEF121#C3FFFFC300FFFFF0
(1648583720.780805) can1 18FEDF00#83A0287D7DFFFFF0
(1648583720.781393) can1 18F00E00#00FBFFFFFFFFFFFF
(1648583720.787236) can1 0CF00300#D1000EFFFF5F607D
(1648583720.789415) can1 0CF00400#707D83C212000F84
(1648583720.796055) can1 18FEF100#FF0000FCFF001FCF
(1648583720.801423) can1 18FEDF00#83A0287D7DFFFFF0
(1648583720.802044) can1 18F00F00#00FBFFFFFFFFFFFF
(1648583720.807269) can1 0CF00300#D1000EFFFF5F617D
(1648583720.809639) can1 0CF00400#007D84C012000F84
(1648583720.810492) can1 0CF00A00#BA0AB409FFFFFFFF
(1648583720.816287) can1 1CFE9200#FFC085FFFFFF0400
(1648583720.816911) can1 18FEFA0B#00FFFFFFFFFFFFFF
(1648583720.820880) can1 18FEDF00#83A0287D7DFFFFF0
(1648583720.826817) can1 0CF00300#D1000EFFFF5F617D
(1648583720.829025) can1 0CF00400#007D84BC12000F84
(1648583720.831039) can1 18F00E00#00FBFFFFFFFFFFFF
(1648583720.841052) can1 18FEDF00#83A0287D7DFFFFF0
(1648583720.847633) can1 0CF00300#D1000EFFFF5F617D
(1648583720.849359) can1 0CF00400#007D84BC12000F84
(1648583720.851080) can1 18F00F00#00FBFFFFFFFFFFFF
(1648583720.861047) can1 18FEDF00#83A0287D7DFFFFF0
(1648583720.861661) can1 0CF00A00#BA0ABD09FFFFFFFF
(1648583720.862294) can1 18FEF200#310000004108FAFF
(1648583720.866729) can1 0CF00300#D1000EFFFF5F617D
(1648583720.869043) can1 0CF00400#007D84BE12000F84
(1648583720.870485) can1 18FEF121#C3FFFFC300FFFFF0
(1648583720.881066) can1 18FEDF00#83A0287D7DFFFFF0
(1648583720.881672) can1 18F00E00#00FBFFFFFFFFFFFF
(1648583720.887250) can1 0CF00300#D1000EFFFF5F617D
(1648583720.889639) can1 0CF00400#007D84B812000F84
(1648583720.895489) can1 18FEF100#FF0000FCFF001FCF
(1648583720.900849) can1 18FEDF00#83A0287D7DFFFFF0
(1648583720.901471) can1 18F00F00#00FBFFFFFFFFFFFF
(1648583720.907170) can1 0CF00300#D1000EFFFF5F617D
(1648583720.909531) can1 0CF00400#107D84B512000F84
(1648583720.910483) can1 0CF00A00#BA0A9809FFFFFFFF
(1648583720.915691) can1 1CFE9200#FFBC85FFFFFF0400
(1648583720.918647) can1 18FEFA0B#00FFFFFFFFFFFFFF
(1648583720.921165) can1 18FEDF00#83A0287D7DFFFFF0
(1648583720.926979) can1 0CF00300#D1000FFFFF5F607D
(1648583720.929255) can1 0CF00400#107D84BC12000F84
(1648583720.931056) can1 18F00E00#00FBFFFFFFFFFFFF
(1648583720.940831) can1 18FEDF00#83A0287D7DFFFFF0
(1648583720.947930) can1 0CF00300#D1000FFFFF5F607D
(1648583720.949299) can1 0CF00400#007D84C312000F84
(1648583720.951178) can1 18F00F00#00FBFFFFFFFFFFFF
(1648583720.961011) can1 18FEDF00#83A0287D7DFFFFF0
(1648583720.961683) can1 0CF00A00#BA0AB409FFFFFFFF
(1648583720.962317) can1 18FEF200#320000004008FAFF
(1648583720.966904) can1 0CF00300#D1000EFFFF5F607D
(1648583720.969198) can1 0CF00400#007D84C112000F84
(1648583720.970353) can1 18FEF121#C3FFFFC300FFFFF0
(1648583720.980815) can1 18FEDF00#83A0287D7DFFFFF0
(1648583720.981413) can1 18F00E00#00FBFFFFFFFFFFFF
(1648583720.987237) can1 0CF00300#D1000EFFFF5F607D
(1648583720.989486) can1 0CF00400#007D84C312000F84
(1648583720.995545) can1 18FEF100#FF0000FCFF001FCF
(1648583720.996124) can1 18FEEF00#FFFFFF3F087DFFFA
(1648583721.001173) can1 18FEDF00#83A0287D7DFFFFF0
(1648583721.001745) can1 18F00F00#00FBFFFFFFFFFFFF
(1648583721.007181) can1 0CF00300#D1000EFFFF5F617D
(1648583721.009651) can1 0CF00400#707D83C412000F84
(1648583721.010517) can1 0CF00A00#BA0AB409FFFFFFFF
(1648583721.016226) can1 1CFE9200#FFBC85FFFFFF0400
(1648583721.016838) can1 18FEFA0B#00FFFFFFFFFFFFFF
(1648583721.020882) can1 18FEDF00#83A0287D7DFFFFF0
(1648583721.026842) can1 0CF00300#D1000EFFFF5F617D
(1648583721.029079) can1 0CF00400#707D83C112000F84
(1648583721.031042) can1 18F00E00#00FBFFFFFFFFFFFF
(1648583721.041157) can1 18FEDF00#83A0287D7DFFFFF0
(1648583721.042312) can1 18FEF600#FF004631FFFFFFFF
(1648583721.047308) can1 0CF00300#D1000EFFFF5F617D
(1648583721.049420) can1 0CF00400#007D84BE12000F84
(1648583721.051077) can1 18F00F00#00FBFFFFFFFFFFFF
(1648583721.061039) can1 18FEDF00#83A0287D7DFFFFF0
(1648583721.061629) can1 0CF00A00#BA0ABD09FFFFFFFF
(1648583721.062295) can1 18FEF200#320000004008FAFF
(1648583721.066745) can1 0CF00300#D1000EFFFF5F617D
(1648583721.068964) can1 0CF00400#007D84BE12000F84
(1648583721.070351) can1 18FEF121#C3FFFFC300FFFFF0
(1648583721.081659) can1 18FEDF00#83A0287D7DFFFFF0
(1648583721.082310) can1 18F00E00#00FBFFFFFFFFFFFF
(1648583721.087251) can1 0CF00300#D1000EFFFF5F617D
(1648583721.089646) can1 0CF00400#007D84B812000F84
(1648583721.095523) can1 18FEF100#FF0000FCFF001FCF
(1648583721.100863) can1 18FEDF00#83A0287D7DFFFFF0
(1648583721.101463) can1 18F00F00#00FBFFFFFFFFFFFF
(1648583721.107747) can1 0CF00300#D1000FFFFF5F617D
(1648583721.109501) can1 0CF00400#107D84B612000F84
(1648583721.110478) can1 0CF00A00#BA0AA109FFFFFFFF
(1648583721.115693) can1 18FD7C00#E08B0100C34F03FF
(1648583721.116890) can1 1CFE9200#FFC485FFFFFF0400
(1648583721.118648) can1 18FEFA0B#00FFFFFFFFFFFFFF
(1648583721.121088) can1 18FEDF00#83A0287D7DFFFFF0
(1648583721.126986) can1 0CF00300#D1000FFFFF5F607D
(1648583721.129196) can1 0CF00400#107D84BA12000F84
(1648583721.131065) can1 18F00E00#00FBFFFFFFFFFFFF
(1648583721.140843) can1 18FEDF00#83A0287D7DFFFFF0
(1648583721.147271) can1 0CF00300#D1000FFFFF5F607D
(1648583721.149285) can1 0CF00400#007D84BF12000F84
(1648583721.151159) can1 18F00F00#00FBFFFFFFFFFFFF
(1648583721.161002) can1 18FEDF00#83A0287D7DFFFFF0
(1648583721.161582) can1 0CF00A00#B10AB409FFFFFFFF
(1648583721.162169) can1 18FEF200#320000004008FAFF
(1648583721.166915) can1 0CF00300#D1000FFFFF5F607D
(1648583721.169135) can1 0CF00400#007D84C012000F84
(1648583721.170369) can1 18FEF121#C3FFFFC300FFFFF0
(1648583721.180750) can1 18FDB400#4C2CD92CFFFFFFFF
(1648583721.181348) can1 18FEDF00#83A0287D7DFFFFF0
(1648583721.181942) can1 18F00E00#00FBFFFFFFFFFFFF
(1648583721.187076) can1 0CF00300#D1000EFFFF5F607D
(1648583721.189413) can1 0CF00400#707D83C312000F84
(1648583721.195506) can1 18FEF100#FF0000FCFF001FCF
(1648583721.196142) can1 18FEEE00#68FF2F2AFFFFFFFF
(1648583721.201081) can1 18FEDF00#83A0287D7DFFFFF0
(1648583721.201655) can1 18F00F00#00FBFFFFFFFFFFFF
(1648583721.207254) can1 18FDB300#FFFFF32BFFFFFFFF
(1648583721.207823) can1 0CF00300#D1000EFFFF5F617D
(1648583721.209637) can1 0CF00400#707D83C312000F84
(1648583721.210565) can1 0CF00A00#BA0AB409FFFFFFFF
(1648583721.216216) can1 1CFE9200#FFC085FFFFFF0400
(1648583721.217395) can1 18FEFA0B#00FFFFFFFFFFFFFF
(1648583721.220875) can1 18FEDF00#83A0287D7DFFFFF0
(1648583721.226850) can1 0CF00300#D1000EFFFF5F617D
(1648583721.229084) can1 0CF00400#707D83BE12000F84
(1648583721.230466) can1 18FDB200#FFFFFFFF0000FFFF
(1648583721.232171) can1 18F00E00#00FBFFFFFFFFFFFF
(1648583721.241085) can1 18FEDF00#83A0287D7DFFFFF0
(1648583721.247320) can1 0CF00300#D1000EFFFF5F617D
(1648583721.249360) can1 0CF00400#007D84BC12000F84
(1648583721.251642) can1 18F00F00#00FBFFFFFFFFFFFF
(1648583721.261083) can1 18FEDF00#83A0287D7DFFFFF0
(1648583721.261684) can1 0CF00A00#BA0AB409FFFFFFFF
(1648583721.262396) can1 18FEF200#310000004008FAFF
(1648583721.266745) can1 0CF00300#D1000EFFFF5F617D
(1648583721.268955) can1 0CF00400#007D84BE12000F84
(1648583721.270363) can1 18FEF121#C3FFFFC300FFFFF0
(1648583721.280980) can1 18FEDF00#83A0287D7DFFFFF0
(1648583721.281604) can1 18F00E00#00FBFFFFFFFFFFFF
(1648583721.287262) can1 0CF00300#D1000EFFFF5F617D
(1648583721.288462) can1 18FEF500#C6FFFFF922FFFFFF
(1648583721.289696) can1 0CF00400#007D84B812000F84
(1648583721.296077) can1 18FEF100#FF0000FCFF001FCF
(1648583721.301974) can1 18FEDF00#83A0287D7DFFFFF0
(1648583721.302578) can1 18F00F00#00FBFFFFFFFFFFFF
(1648583721.307206) can1 0CF00300#D1000EFFFF5F617D
(1648583721.308424) can1 18FEA400#FFFF2426FFFF3129
(1648583721.309580) can1 0CF00400#107D84B412000F84
(1648583721.310478) can1 0CF00A00#BA0A9809FFFFFFFF
(1648583721.315704) can1 1CFE9200#FFBC85FFFFFF0400
(1648583721.318151) can1 18FEFA0B#00FFFFFFFFFFFFFF
(1648583721.321083) can1 18FEDF00#83A0287D7DFFFFF0
(1648583721.326998) can1 0CF00300#D1000FFFFF5F607D
(1648583721.329176) can1 0CF00400#107D84BB12000F84
(1648583721.331049) can1 18F00E00#00FBFFFFFFFFFFFF
(1648583721.340770) can1 18FEDF00#83A0287D7DFFFFF0
(1648583721.347328) can1 0CF00300#D1000FFFFF5F607D
(1648583721.349298) can1 0CF00400#007D84C212000F84
(1648583721.351722) can1 18F00F00#00FBFFFFFFFFFFFF
(1648583721.361053) can1 18FEDF00#83A0287D7DFFFFF0
(1648583721.361696) can1 0CF00A00#BA0AB409FFFFFFFF
(1648583721.362320) can1 18FEF200#320000004008FAFF
(1648583721.366897) can1 0CF00300#D1000EFFFF5F607D
(1648583721.369140) can1 0CF00400#007D84C212000F84
(1648583721.370379) can1 18FEF121#C3FFFFC300FFFFF0
(1648583721.380798) can1 18FEDF00#83A0287D7DFFFFF0
(1648583721.381941) can1 18F00E00#00FBFFFFFFFFFFFF
(1648583721.387062) can1 0CF00300#D1000EFFFF5F607D
(1648583721.389452) can1 0CF00400#007D84C212000F84
(1648583721.395504) can1 18FEF100#FF0000FCFF001FCF
(1648583721.401038) can1 18FEDF00#83A0287D7DFFFFF0
(1648583721.401685) can1 18F00F00#00FBFFFFFFFFFFFF
(1648583721.407190) can1 0CF00300#D1000EFFFF5F617D
(1648583721.409581) can1 0CF00400#007D84C312000F84
(1648583721.410518) can1 0CF00A00#BA0AB409FFFFFFFF
(1648583721.416219) can1 1CFE9200#FFC485FFFFFF0400
(1648583721.416843) can1 18FEFA0B#00FFFFFFFFFFFFFF
(1648583721.420812) can1 18FEDF00#83A0287D7DFFFFF0
(1648583721.426840) can1 0CF00300#D1000EFFFF5F617D
(1648583721.429082) can1 0CF00400#707D83BF12000F84
(1648583721.431085) can1 18F00E00#00FBFFFFFFFFFFFF
(1648583721.441033) can1 18FEDF00#83A0287D7DFFFFF0
(1648583721.447293) can1 0CF00300#D1000EFFFF5F617D
(1648583721.449347) can1 0CF00400#007D84BD12000F84
(1648583721.451169) can1 18F00F00#00FBFFFFFFFFFFFF
(1648583721.461028) can1 18FEDF00#83A0287D7DFFFFF0
(1648583721.461643) can1 0CF00A00#B10ABD09FFFFFFFF
(1648583721.462323) can1 18FEF200#320000004008FAFF
(1648583721.466726) can1 0CF00300#D1000EFFFF5F617D
(1648583721.468973) can1 0CF00400#007D84BC12000F84
(1648583721.472150) can1 18FEF121#C3FFFFC300FFFFF0
(1648583721.480825) can1 18FEF721#FFFFFFFF1B01FFFF
(1648583721.481991) can1 18FEFA21#00004FFFFFFFFFFF
(1648583721.482559) can1 18FEDF00#83A0287D7DFFFFF0
(1648583721.483733) can1 18F00E00#00FBFFFFFFFFFFFF
(1648583721.487274) can1 0CF00300#D1000EFFFF5F617D
(1648583721.489680) can1 0CF00400#107D84B612000F84
(1648583721.495560) can1 18FEF100#FF0000FCFF001FCF
(1648583721.496160) can1 18FEEF00#FFFFFF3F0A7DFFFA
(1648583721.501238) can1 18FEDF00#83A0287D7DFFFFF0
(1648583721.501852) can1 18F00F00#00FBFFFFFFFFFFFF
(1648583721.507164) can1 0CF00300#D1000FFFFF5F617D
(1648583721.509520) can1 0CF00400#207D84B512000F84
(1648583721.510489) can1 0CF00A00#B10AA109FFFFFFFF
(1648583721.515726) can1 1CFE9200#FFCC85FFFFFF0400
(1648583721.518091) can1 18FEFA0B#00FFFFFFFFFFFFFF
(1648583721.521106) can1 18FEDF00#83A0287D7DFFFFF0
(1648583721.527037) can1 0CF00300#D1000FFFFF5F607D
(1648583721.529225) can1 0CF00400#107D84BC12000F84
(1648583721.531062) can1 18F00E00#00FBFFFFFFFFFFFF
(1648583721.540806) can1 18FEDF00#83A0287D7DFFFFF0
(1648583721.541975) can1 18FEF600#FF004631FFFFFFFF
(1648583721.547650) can1 0CF00300#D1000FFFFF5F607D
(1648583721.549374) can1 0CF00400#107D84BF12000F84
(1648583721.551099) can1 18F00F00#00FBFFFFFFFFFFFF
(1648583721.560999) can1 18FEDF00#83A0287D7DFFFFF0
(1648583721.561600) can1 0CF00A00#B10ABD09FFFFFFFF
(1648583721.562184) can1 18FEF200#320000004008FAFF
(1648583721.566906) can1 0CF00300#D1000FFFFF5F607D
(1648583721.569167) can1 0CF00400#007D84C012000F84
(1648583721.570379) can1 18FEF121#C3FFFFC300FFFFF0
(1648583721.580740) can1 18FEDF00#83A0287D7DFFFFF0
(1648583721.581356) can1 18F00E00#00FBFFFFFFFFFFFF
(1648583721.587050) can1 0CF00300#D1000EFFFF5F607D
(1648583721.589321) can1 0CF00400#707D83C312000F84
(1648583721.595503) can1 18FEF100#FF0000FCFF001FCF
(1648583721.601043) can1 18FEDF00#83A0287D7DFFFFF0
(1648583721.601701) can1 18F00F00#00FBFFFFFFFFFFFF
(1648583721.607237) can1 0CF00300#D1000EFFFF5F617D
(1648583721.609677) can1 0CF00400#707D83C612000F84
(1648583721.610647) can1 0CF00A00#B10ABD09FFFFFFFF
(1648583721.616851) can1 1CFE9200#FFC085FFFFFF0400
(1648583721.617487) can1 18FEFA0B#00FFFFFFFFFFFFFF
(1648583721.620818) can1 18FEDF00#83A0287D7DFFFFF0
(1648583721.626871) can1 0CF00300#D1000EFFFF5F617D
(1648583721.629098) can1 0CF00400#707D83BF12000F84
(1648583721.631060) can1 18F00E00#00FBFFFFFFFFFFFF
(1648583721.641022) can1 18FEDF00#83A0287D7DFFFFF0
(1648583721.647528) can1 0CF00300#D1000EFFFF5F617D
(1648583721.649407) can1 0CF00400#007D84BD12000F84
(1648583721.651100) can1 18F00F00#00FBFFFFFFFFFFFF
(1648583721.661063) can1 18FEDF00#83A0287D7DFFFFF0
(1648583721.661682) can1 0CF00A00#BA0ABD09FFFFFFFF
(1648583721.662304) can1 18FEF200#320000004008FAFF
(1648583721.666747) can1 0CF00300#D1000EFFFF5F617D
(1648583721.668960) can1 0CF00400#007D84C012000F84
(1648583721.670416) can1 18FEF121#C3FFFFC300FFFFF0
(1648583721.680988) can1 18FDB400#492CD62CFFFFFFFF
(1648583721.681590) can1 18FEDF00#83A0287D7DFFFFF0
(1648583721.682185) can1 18F00E00#00FBFFFFFFFFFFFF
(1648583721.687295) can1 0CF00300#D1000EFFFF5F617D
(1648583721.689676) can1 0CF00400#007D84BA12000F84
(1648583721.695534) can1 18FEF100#FF0000FCFF001FCF
(1648583721.700805) can1 18FEDF00#83A0287D7DFFFFF0
(1648583721.701424) can1 18F00F00#00FBFFFFFFFFFFFF
(1648583721.707208) can1 18FDB300#FFFFF02BFFFFFFFF
(1648583721.707822) can1 0CF00300#D1000EFFFF5F617D
(1648583721.709577) can1 0CF00400#107D84B512000F84
(1648583721.710519) can1 0CF00A00#BA0AA109FFFFFFFF
(1648583721.715695) can1 1CFE9200#FFC085FFFFFF0400
(1648583721.718083) can1 18FEFA0B#00FFFFFFFFFFFFFF
(1648583721.721172) can1 18FEDF00#83A0287D7DFFFFF0
(1648583721.727032) can1 0CF00300#D1000FFFFF5F607D
(1648583721.729257) can1 0CF00400#107D84BB12000F84
(1648583721.730480) can1 18FDB200#FFFFFFFF0000FFFF
(1648583721.731678) can1 18F00E00#00FBFFFFFFFFFFFF
(1648583721.740794) can1 18FEDF00#83A0287D7DFFFFF0
(1648583721.747249) can1 0CF00300#D1000FFFFF5F607D
(1648583721.749253) can1 0CF00400#107D84C212000F84
(1648583721.751681) can1 18F00F00#00FBFFFFFFFFFFFF
(1648583721.761012) can1 18FEDF00#83A0287D7DFFFFF0
(1648583721.761608) can1 0CF00A00#BA0AAB09FFFFFFFF
(1648583721.762276) can1 18FEF200#320000004008FAFF
(1648583721.766868) can1 18FEF700#FFFFFFFF1A01FFFF
(1648583721.768020) can1 0CF00300#D1000FFFFF5F607D
(1648583721.769243) can1 0CF00400#007D84C412000F84
(1648583721.770411) can1 18FEF121#C3FFFFC300FFFFF0
(1648583721.780816) can1 18FEDF00#83A0287D7DFFFFF0
(1648583721.781357) can1 18F00E00#00FBFFFFFFFFFFFF
(1648583721.787047) can1 0CF00300#D1000EFFFF5F607D
(1648583721.789334) can1 0CF00400#707D83C412000F84
(1648583721.796067) can1 18FEF100#FF0000FCFF001FCF
(1648583721.801448) can1 18FEDF00#83A0287D7DFFFFF0
(1648583721.802071) can1 18F00F00#00FBFFFFFFFFFFFF
(1648583721.807244) can1 0CF00300#D1000EFFFF5F617D
(1648583721.809685) can1 0CF00400#707D83C512000F84
(1648583721.810525) can1 0CF00A00#BA0AB409FFFFFFFF
(1648583721.816261) can1 1CFE9200#FFCC85FFFFFF0300
(1648583721.816901) can1 18FEFA0B#00FFFFFFFFFFFFFF
(1648583721.820825) can1 18FEDF00#83A0287D7DFFFFF0
(1648583721.826875) can1 0CF00300#D1000EFFFF5F617D
(1648583721.829102) can1 0CF00400#707D83C212000F84
(1648583721.831067) can1 18F00E00#00FBFFFFFFFFFFFF
(1648583721.841028) can1 18FEDF00#83A0287D7DFFFFF0
(1648583721.847559) can1 0CF00300#D1000EFFFF5F617D
(1648583721.849433) can1 0CF00400#707D83C012000F84
(1648583721.851108) can1 18F00F00#00FBFFFFFFFFFFFF
(1648583721.861042) can1 18FEDF00#83A0287D7DFFFFF0
(1648583721.861666) can1 0CF00A00#BA0ABD09FFFFFFFF
(1648583721.862311) can1 18FEF200#320000004008FAFF
(1648583721.866769) can1 0CF00300#D1000EFFFF5F617D
(1648583721.868988) can1 0CF00400#007D84BC12000F84
(1648583721.870416) can1 18FEF121#C3FFFFC300FFFFF0
(1648583721.881002) can1 18FEDF00#83A0287D7DFFFFF0
(1648583721.881654) can1 18F00E00#00FBFFFFFFFFFFFF
(1648583721.887291) can1 0CF00300#D1000EFFFF5F617D
(1648583721.889681) can1 0CF00400#107D84B712000F84
(1648583721.895524) can1 18FEF100#FF0000FCFF001FCF
(1648583721.900823) can1 18FEDF00#83A0287D7DFFFFF0
(1648583721.901441) can1 18F00F00#00FBFFFFFFFFFFFF
(1648583721.907190) can1 0CF00300#D1000FFFFF5F617D
(1648583721.909570) can1 0CF00400#107D84B712000F84
(1648583721.910520) can1 0CF00A00#BA0A9809FFFFFFFF
(1648583721.915690) can1 1CFE9200#FFD085FFFFFF0400
(1648583721.918597) can1 18FEFA0B#00FFFFFFFFFFFFFF
(1648583721.921223) can1 18FEDF00#83A0287D7DFFFFF0
(1648583721.927009) can1 0CF00300#D1000FFFFF5F607D
(1648583721.929254) can1 0CF00400#107D84BD12000F84
(1648583721.931093) can1 18F00E00#00FBFFFFFFFFFFFF
(1648583721.940805) can1 18FEDF00#83A0287D7DFFFFF0
(1648583721.947838) can1 0CF00300#D1000FFFFF5F607D
(1648583721.949278) can1 0CF00400#107D84C012000F84
(1648583721.951185) can1 18F00F00#00FBFFFFFFFFFFFF
(1648583721.961023) can1 18FEDF00#83A0287D7DFFFFF0
(1648583721.961612) can1 0CF00A00#BA0AAB09FFFFFFFF
(1648583721.962285) can1 18FEF200#320000004008FAFF
(1648583721.966921) can1 0CF00300#D1000FFFFF5F607D
(1648583721.969107) can1 0CF00400#007D84C112000F84
(1648583721.970421) can1 18FEF121#C3FFFFC300FFFFF0
(1648583721.980764) can1 18FEDF00#83A0287D7DFFFFF0
(1648583721.981382) can1 18F00E00#00FBFFFFFFFFFFFF
(1648583721.987199) can1 0CF00300#D1000EFFFF5F607D
(1648583721.989516) can1 0CF00400#007D84C512000F84
(1648583721.995523) can1 18FEF100#FF0000FCFF001FCF
(1648583721.996180) can1 18FEEF00#FFFFFF3F0D7DFFFA
(1648583722.001090) can1 18FEDF00#83A0287D7DFFFFF0
(1648583722.001711) can1 18F00F00#00FBFFFFFFFFFFFF
(1648583722.007249) can1 0CF00300#D1000EFFFF5F607D
(1648583722.009701) can1 0CF00400#707D83C712000F84
(1648583722.010565) can1 0CF00A00#BA0AB409FFFFFFFF
(1648583722.016290) can1 1CFE9200#FFC485FFFFFF0400
(1648583722.016890) can1 18FEFA0B#00FFFFFFFFFFFFFF
(1648583722.020834) can1 18FEDF00#83A0287D7DFFFFF0
(1648583722.026871) can1 0CF00300#D1000EFFFF5F607D
(1648583722.029126) can1 0CF00400#707D83C012000F84
(1648583722.031072) can1 18F00E00#00FBFFFFFFFFFFFF
(1648583722.041083) can1 18FEDF00#83A0287D7DFFFFF0
(1648583722.042328) can1 18FEF600#FF004631FFFFFFFF
(1648583722.047320) can1 0CF00300#D1000EFFFF5F617D
(1648583722.049432) can1 0CF00400#007D84BE12000F84
(1648583722.051111) can1 18F00F00#00FBFFFFFFFFFFFF
(1648583722.061077) can1 18FEDF00#83A0287D7DFFFFF0
(1648583722.061708) can1 0CF00A00#BA0AB409FFFFFFFF
(1648583722.062318) can1 18FEF200#320000004008FAFF
(1648583722.066777) can1 0CF00300#D1000EFFFF5F617D
(1648583722.068992) can1 0CF00400#007D84C012000F84
(1648583722.070430) can1 18FEF121#C3FFFFC300FFFFF0
(1648583722.081575) can1 18FEDF00#83A0287D7DFFFFF0
(1648583722.082282) can1 18F00E00#00FBFFFFFFFFFFFF
(1648583722.087303) can1 0CF00300#D1000EFFFF5F617D
(1648583722.089692) can1 0CF00400#007D84BB12000F84
(1648583722.095531) can1 18FEF100#FF0000FCFF001FCF
(1648583722.100831) can1 18FEDF00#83A0287D7DFFFFF0
(1648583722.101427) can1 18F00F00#00FBFFFFFFFFFFFF
(1648583722.107727) can1 0CF00300#D1000EFFFF5F617D
(1648583722.109537) can1 0CF00400#107D84B712000F84
(1648583722.110514) can1 0CF00A00#BA0AA109FFFFFFFF
(1648583722.115683) can1 18FD7C00#E08B0100C34F03FF
(1648583722.116864) can1 1CFE9200#FFC485FFFFFF0400
(1648583722.118630) can1 18FEFA0B#00FFFFFFFFFFFFFF
(1648583722.121225) can1 18FEDF00#83A0287D7DFFFFF0
(1648583722.125087) can1 18FEFA21#00004FFFFFFFFFFF
(1648583722.127013) can1 0CF00300#D1000FFFFF5F607D
(1648583722.129194) can1 0CF00400#107D84BD12000F84
(1648583722.131083) can1 18F00E00#00FBFFFFFFFFFFFF
(1648583722.140805) can1 18FEDF00#83A0287D7DFFFFF0
(1648583722.147267) can1 0CF00300#D1000FFFFF5F607D
(1648583722.149234) can1 0CF00400#007D84C312000F84
(1648583722.151128) can1 18F00F00#00FBFFFFFFFFFFFF
(1648583722.161027) can1 18FEDF00#83A0287D7DFFFFF0
(1648583722.161648) can1 0CF00A00#BA0AAB09FFFFFFFF
(1648583722.162285) can1 18FEF200#320000004008FAFF
(1648583722.166949) can1 0CF00300#D1000EFFFF5F607D
(1648583722.169186) can1 0CF00400#007D84C612000F84
(1648583722.170440) can1 18FEF121#C3FFFFC300FFFFF0
(1648583722.180767) can1 18FDB400#4C2CD62CFFFFFFFF
(1648583722.181363) can1 18FEDF00#83A0287D7DFFFFF0
(1648583722.182005) can1 18F00E00#00FBFFFFFFFFFFFF
(1648583722.187566) can1 0CF00300#D1000EFFFF5F607D
(1648583722.189506) can1 0CF00400#707D83C612000F84
(1648583722.195526) can1 18FEF100#FF0000FCFF001FCF
(1648583722.196106) can1 18FEEE00#68FF2F2AFFFFFFFF
(1648583722.201071) can1 18FEDF00#83A0287D7DFFFFF0
(1648583722.201720) can1 18F00F00#00FBFFFFFFFFFFFF
(1648583722.207265) can1 18FDB300#FFFFF32BFFFFFFFF
(1648583722.207838) can1 0CF00300#D1000EFFFF5F617D
(1648583722.209705) can1 0CF00400#707D83C712000F84
(1648583722.210580) can1 0CF00A00#BA0AB409FFFFFFFF
(1648583722.216280) can1 1CFE9200#FFD085FFFFFF0300
(1648583722.217464) can1 18FEFA0B#00FFFFFFFFFFFFFF
(1648583722.220835) can1 18FEDF00#83A0287D7DFFFFF0
(1648583722.226891) can1 0CF00300#D1000EFFFF5F617D
(1648583722.229133) can1 0CF00400#707D83C312000F84
(1648583722.230490) can1 18FDB200#FFFFFFFF0000FFFF
(1648583722.231696) can1 18F00E00#00FBFFFFFFFFFFFF
(1648583722.241065) can1 18FEDF00#83A0287D7DFFFFF0
(1648583722.247213) can1 0CF00300#D1000EFFFF5F617D
(1648583722.249446) can1 0CF00400#707D83C312000F84
(1648583722.251720) can1 18F00F00#00FBFFFFFFFFFFFF
(1648583722.261094) can1 18FEDF00#83A0287D7DFFFFF0
(1648583722.261731) can1 0CF00A00#BA0ABD09FFFFFFFF
(1648583722.262327) can1 18FEF200#310000004008FAFF
(1648583722.266790) can1 0CF00300#D1000EFFFF5F617D
(1648583722.269022) can1 0CF00400#707D83C112000F84
(1648583722.270445) can1 18FEF121#C3FFFFC300FFFFF0
(1648583722.281013) can1 18FEDF00#83A0287D7DFFFFF0
(1648583722.281626) can1 18F00E00#00FBFFFFFFFFFFFF
(1648583722.287542) can1 0CF00300#D1000EFFFF5F617D
(1648583722.288695) can1 18FEF500#C6FFFFF922FFFFFF
(1648583722.289692) can1 0CF00400#007D84BA12000F84
(1648583722.296162) can1 18FEF100#FF0000FCFF001FCF
(1648583722.301956) can1 18FEDF00#83A0287D7DFFFFF0
(1648583722.302576) can1 18F00F00#00FBFFFFFFFFFFFF
(1648583722.307229) can1 0CF00300#D1000EFFFF5F617D
(1648583722.308418) can1 18FEA400#FFFF2426FFFF3229
(1648583722.309616) can1 0CF00400#107D84B912000F84
(1648583722.310511) can1 0CF00A00#BA0A9809FFFFFFFF
(1648583722.315723) can1 1CFE9200#FFD085FFFFFF0300
(1648583722.318070) can1 18FEFA0B#00FFFFFFFFFFFFFF
(1648583722.321115) can1 18FEDF00#83A0287D7DFFFFF0
(1648583722.327037) can1 0CF00300#D1000FFFFF5F607D
(1648583722.329238) can1 0CF00400#107D84C012000F84
(1648583722.331068) can1 18F00E00#00FBFFFFFFFFFFFF
(1648583722.340823) can1 18FEDF00#83A0287D7DFFFFF0
(1648583722.347236) can1 0CF00300#D1000FFFFF5F607D
(1648583722.349370) can1 0CF00400#007D84C512000F84
(1648583722.351701) can1 18F00F00#00FBFFFFFFFFFFFF
(1648583722.361115) can1 18FEDF00#83A0287D7DFFFFF0
(1648583722.361753) can1 0CF00A00#BA0AB409FFFFFFFF
(1648583722.362883) can1 18FEF200#310000004008FAFF
(1648583722.366958) can1 0CF00300#D1000EFFFF5F607D
(1648583722.369195) can1 0CF00400#007D84C412000F84
(1648583722.370456) can1 18FEF121#C3FFFFC300FFFFF0
(1648583722.380756) can1 18FEDF00#83A0287D7DFFFFF0
(1648583722.381970) can1 18F00E00#00FBFFFFFFFFFFFF
(1648583722.387096) can1 0CF00300#D1000EFFFF5F607D
(1648583722.389472) can1 0CF00400#707D83C712000F84
(1648583722.395557) can1 18FEF100#FF0000FCFF001FCF
(1648583722.401071) can1 18FEDF00#83A0287D7DFFFFF0
(1648583722.401727) can1 18F00F00#00FBFFFFFFFFFFFF
(1648583722.407255) can1 0CF00300#D1000EFFFF5F617D
(1648583722.409661) can1 0CF00400#707D83C912000F84
(1648583722.410552) can1 0CF00A00#BA0ABD09FFFFFFFF
(1648583722.416280) can1 1CFE9200#FFCC85FFFFFF0300
(1648583722.416937) can1 18FEFA0B#00FFFFFFFFFFFFFF
(1648583722.420843) can1 18FEDF00#83A0287D7DFFFFF0
(1648583722.426883) can1 0CF00300#D1000EFFFF5F617D
(1648583722.429130) can1 0CF00400#707D83C212000F84
(1648583722.431100) can1 18F00E00#00FBFFFFFFFFFFFF
(1648583722.441085) can1 18FEDF00#83A0287D7DFFFFF0
(1648583722.447111) can1 0CF00300#D1000EFFFF5F617D
(1648583722.449450) can1 0CF00400#007D84BF12000F84
(1648583722.451138) can1 18F00F00#00FBFFFFFFFFFFFF
(1648583722.461063) can1 18FEDF00#83A0287D7DFFFFF0
(1648583722.461706) can1 0CF00A00#BA0AC709FFFFFFFF
(1648583722.462304) can1 18FEF200#310000004108FAFF
(1648583722.466775) can1 0CF00300#D1000EFFFF5F617D
(1648583722.469009) can1 0CF00400#007D84C112000F84
(1648583722.472294) can1 18FEF121#C3FFFFC300FFFFF0
(1648583722.480899) can1 18FEF721#FFFFFFFF1B01FFFF
(1648583722.482067) can1 18FEFA21#00004FFFFFFFFFFF
(1648583722.482635) can1 18FEDF00#83A0287D7DFFFFF0
(1648583722.483815) can1 18F00E00#00FBFFFFFFFFFFFF
(1648583722.487321) can1 0CF00300#D1000EFFFF5F617D
(1648583722.489744) can1 0CF00400#007D84BD12000F84
(1648583722.495586) can1 18FEF100#FF0000FCFF001FCF
(1648583722.496208) can1 18FEEF00#FFFFFF3F0D7DFFFA
(1648583722.501219) can1 18FEDF00#83A0287D7DFFFFF0
(1648583722.501821) can1 18F00F00#00FBFFFFFFFFFFFF
(1648583722.507212) can1 0CF00300#D1000EFFFF5F617D
(1648583722.509529) can1 0CF00400#107D84BA12000F84
(1648583722.510516) can1 0CF00A00#B10AAB09FFFFFFFF
(1648583722.515718) can1 1CFE9200#FFCC85FFFFFF0300
(1648583722.518066) can1 18FEFA0B#00FFFFFFFFFFFFFF
(1648583722.521129) can1 18FEDF00#83A0287D7DFFFFF0
(1648583722.527052) can1 0CF00300#D1000FFFFF5F617D
(1648583722.529243) can1 0CF00400#107D84BF12000F84
(1648583722.531095) can1 18F00E00#00FBFFFFFFFFFFFF
(1648583722.540821) can1 18FEDF00#83A0287D7DFFFFF0
(1648583722.542001) can1 18FEF600#FF004631FFFFFFFF
(1648583722.547256) can1 0CF00300#D1000FFFFF5F617D
(1648583722.549374) can1 0CF00400#007D84C612000F84
(1648583722.551108) can1 18F00F00#00FBFFFFFFFFFFFF
(1648583722.561037) can1 18FEDF00#83A0287D7DFFFFF0
(1648583722.561664) can1 0CF00A00#B10ABD09FFFFFFFF
(1648583722.562306) can1 18FEF200#310000004008FAFF
(1648583722.566963) can1 0CF00300#D1000EFFFF5F607D
(1648583722.569288) can1 0CF00400#707D83C712000F84
(1648583722.570466) can1 18FEF121#C3FFFFC300FFFFF0
(1648583722.580844) can1 18FEDF00#83A0287D7DFFFFF0
(1648583722.581453) can1 18F00E00#00FBFFFFFFFFFFFF
(1648583722.587083) can1 0CF00300#D1000EFFFF5F607D
(1648583722.589487) can1 0CF00400#707D83C912000F84
(1648583722.595613) can1 18FEF100#FF0000FCFF001FCF
(1648583722.601139) can1 18FEDF00#83A0287D7DFFFFF0
(1648583722.601761) can1 18F00F00#00FBFFFFFFFFFFFF
(1648583722.607261) can1 0CF00300#D1000EFFFF5F617D
(1648583722.609727) can1 0CF00400#707D83C812000F84
(1648583722.610630) can1 0CF00A00#B10AC709FFFFFFFF
(1648583722.616782) can1 1CFE9200#FFCC85FFFFFF0300
(1648583722.617400) can1 18FEFA0B#00FFFFFFFFFFFFFF
(1648583722.620918) can1 18FEDF00#83A0287D7DFFFFF0
(1648583722.626893) can1 0CF00300#D1000EFFFF5F617D
(1648583722.629112) can1 0CF00400#707D83C312000F84
(1648583722.631088) can1 18F00E00#00FBFFFFFFFFFFFF
(1648583722.641110) can1 18FEDF00#83A0287D7DFFFFF0
(1648583722.647116) can1 0CF00300#D1000EFFFF5F617D
(1648583722.649466) can1 0CF00400#707D83C312000F84
(1648583722.651128) can1 18F00F00#00FBFFFFFFFFFFFF
(1648583722.659975) can1 18FEFA21#00004FFFFFFFFFFF
(1648583722.661150) can1 18FEDF00#83A0287D7DFFFFF0
(1648583722.661719) can1 0CF00A00#B10AD009FFFFFFFF
(1648583722.662329) can1 18FEF200#310000004008FAFF
(1648583722.666805) can1 0CF00300#D1000EFFFF5F617D
(1648583722.669056) can1 0CF00400#707D83C212000F84
(1648583722.670489) can1 18FEF121#C3FFFFC300FFFFF0
(1648583722.681081) can1 18FDB400#4C2CD62CFFFFFFFF
(1648583722.681725) can1 18FEDF00#83A0287D7DFFFFF0
(1648583722.682309) can1 18F00E00#00FBFFFFFFFFFFFF
(1648583722.687591) can1 0CF00300#D1000EFFFF5F617D
(1648583722.689761) can1 0CF00400#007D84BB12000F84
(1648583722.695557) can1 18FEF100#FF0000FCFF001FCF
(1648583722.700915) can1 18FEDF00#83A0287D7DFFFFF0
(1648583722.701516) can1 18F00F00#00FBFFFFFFFFFFFF
(1648583722.707490) can1 18FDB300#FFFFF02BFFFFFFFF
(1648583722.708086) can1 0CF00300#D1000EFFFF5F617D
(1648583722.709566) can1 0CF00400#107D84B912000F84
(1648583722.710524) can1 0CF00A00#B10AAB09FFFFFFFF
(1648583722.715736) can1 1CFE9200#FFCC85FFFFFF0300
(1648583722.718084) can1 18FEFA0B#00FFFFFFFFFFFFFF
(1648583722.721225) can1 18FEDF00#83A0287D7DFFFFF0
(1648583722.727057) can1 0CF00300#D1000FFFFF5F617D
(1648583722.729327) can1 0CF00400#107D84BD12000F84
(1648583722.730505) can1 18FDB200#FFFFFFFF0000FFFF
(1648583722.731735) can1 18F00E00#00FBFFFFFFFFFFFF
(1648583722.740880) can1 18FEDF00#83A0287D7DFFFFF0
(1648583722.747295) can1 0CF00300#D1000FFFFF5F607D
(1648583722.749320) can1 0CF00400#007D84C512000F84
(1648583722.751732) can1 18F00F00#00FBFFFFFFFFFFFF
(1648583722.759939) can1 18FEFA21#00004FFFFFFFFFFF
(1648583722.761056) can1 18FEDF00#83A0287D7DFFFFF0
(1648583722.761622) can1 0CF00A00#B10ABD09FFFFFFFF
(1648583722.762331) can1 18FEF200#310000004008FAFF
(1648583722.766891) can1 18FEF700#FFFFFFFF1A01FFFF
(1648583722.768027) can1 0CF00300#D1000EFFFF5F607D
(1648583722.769262) can1 0CF00400#007D84C312000F84
(1648583722.770491) can1 18FEF121#C3FFFFC300FFFFF0
(1648583722.780847) can1 18FEDF00#83A0287D7DFFFFF0
(1648583722.781454) can1 18F00E00#00FBFFFFFFFFFFFF
(1648583722.787096) can1 0CF00300#D1000EFFFF5F617D
(1648583722.789481) can1 0CF00400#707D83C612000F84
(1648583722.796102) can1 18FEF100#FF0000FCFF001FCF
(1648583722.801333) can1 18FEDF00#83A0287D7DFFFFF0
(1648583722.801954) can1 18F00F00#00FBFFFFFFFFFFFF
(1648583722.807350) can1 0CF00300#D1000EFFFF5F617D
(1648583722.809741) can1 0CF00400#707D83C912000F84
(1648583722.810640) can1 0CF00A00#B10ABD09FFFFFFFF
(1648583722.816214) can1 1CFE9200#FFD485FFFFFF0300
(1648583722.816862) can1 18FEFA0B#00FFFFFFFFFFFFFF
(1648583722.820987) can1 18FEDF00#83A0287D7DFFFFF0
(1648583722.825321) can1 18FEFA21#00004FFFFFFFFFFF
(1648583722.826894) can1 0CF00300#D1000EFFFF5F617D
(1648583722.829171) can1 0CF00400#607D83C612000F84
(1648583722.831082) can1 18F00E00#00FBFFFFFFFFFFFF
(1648583722.841130) can1 18FEDF00#83A0287D7DFFFFF0
(1648583722.847525) can1 0CF00300#D1000EFFFF5F617D
(1648583722.849469) can1 0CF00400#707D83C112000F84
(1648583722.851137) can1 18F00F00#00FBFFFFFFFFFFFF
(1648583722.861052) can1 18FEDF00#83A0287D7DFFFFF0
(1648583722.861643) can1 0CF00A00#B10AC709FFFFFFFF
(1648583722.862335) can1 18FEF200#310000004008FAFF
(1648583722.866790) can1 0CF00300#D1000EFFFF5F627D
(1648583722.869101) can1 0CF00400#007D84BE12000F84
(1648583722.870488) can1 18FEF121#C3FFFFC300FFFFF0
(1648583722.881563) can1 18FEDF00#83A0287D7DFFFFF0
(1648583722.882182) can1 18F00E00#00FBFFFFFFFFFFFF
(1648583722.887732) can1 0CF00300#D1000EFFFF5F617D
(1648583722.889733) can1 0CF00400#007D84BB12000F84
(1648583722.895532) can1 18FEF100#FF0000FCFF001FCF
(1648583722.900911) can1 18FEDF00#83A0287D7DFFFFF0
(1648583722.901548) can1 18F00F00#00FBFFFFFFFFFFFF
(1648583722.907219) can1 0CF00300#D1000EFFFF5F617D
(1648583722.909611) can1 0CF00400#107D84B812000F84
(1648583722.910531) can1 0CF00A00#B10AB409FFFFFFFF
(1648583722.915746) can1 1CFE9200#FFD885FFFFFF0300
(1648583722.918746) can1 18FEFA0B#00FFFFFFFFFFFFFF
(1648583722.921326) can1 18FEDF00#83A0287D7DFFFFF0
(1648583722.927020) can1 0CF00300#D1000FFFFF5F617D
(1648583722.929296) can1 0CF00400#107D84BB12000F84
(1648583722.931110) can1 18F00E00#00FBFFFFFFFFFFFF
(1648583722.940887) can1 18FEDF00#83A0287D7DFFFFF0
(1648583722.947885) can1 0CF00300#D1000FFFFF5F617D
(1648583722.949394) can1 0CF00400#007D84C112000F84
(1648583722.951162) can1 18F00F00#00FBFFFFFFFFFFFF
(1648583722.961053) can1 18FEDF00#83A0287D7DFFFFF0
(1648583722.961641) can1 0CF00A00#B10AC709FFFFFFFF
(1648583722.962310) can1 18FEF200#310000004008FAFF
(1648583722.966950) can1 0CF00300#D1000EFFFF5F607D
(1648583722.969234) can1 0CF00400#007D84C412000F84
(1648583722.970498) can1 18FEF121#C3FFFFC300FFFFF0
(1648583722.981335) can1 18FEDF00#83A0287D7DFFFFF0
(1648583722.981962) can1 18F00E00#00FBFFFFFFFFFFFF
(1648583722.987245) can1 0CF00300#D1000EFFFF5F607D
(1648583722.989598) can1 0CF00400#707D83C612000F84
(1648583722.995554) can1 18FEF100#FF0000FCFF001FCF
(1648583722.996151) can1 18FEEF00#FFFFFF3F0B7DFFFA
(1648583723.001163) can1 18FEDF00#83A0287D7DFFFFF0
(1648583723.001778) can1 18F00F00#00FBFFFFFFFFFFFF
(1648583723.007325) can1 0CF00300#D1000EFFFF5F617D
(1648583723.009752) can1 0CF00400#707D83C312000F84
(1648583723.010647) can1 0CF00A00#B10AC709FFFFFFFF
(1648583723.016214) can1 1CFE9200#FFC885FFFFFF0400
(1648583723.016837) can1 18FEFA0B#00FFFFFFFFFFFFFF
(1648583723.020946) can1 18FEDF00#83A0287D7DFFFFF0
(1648583723.027417) can1 0CF00300#D1000EFFFF5F617D
(1648583723.029255) can1 0CF00400#707D83C012000F84
(1648583723.031531) can1 18F00E00#00FBFFFFFFFFFFFF
(1648583723.041171) can1 18FEDF00#83A0287D7DFFFFF0
(1648583723.042348) can1 18FEF600#FF004631FFFFFFFF
(1648583723.047232) can1 0CF00300#D1000EFFFF5F627D
(1648583723.049471) can1 0CF00400#007D84BF12000F84
(1648583723.051136) can1 18F00F00#00FBFFFFFFFFFFFF
(1648583723.061086) can1 18FEDF00#83A0287D7DFFFFF0
(1648583723.061731) can1 0CF00A00#B10ABD09FFFFFFFF
(1648583723.062328) can1 18FEF200#310000004008FAFF
(1648583723.066813) can1 0CF00300#D1000EFFFF5F617D
(1648583723.069123) can1 0CF00400#007D84BF12000F84
(1648583723.070500) can1 18FEF121#C3FFFFC300FFFFF0
(1648583723.081722) can1 18FEDF00#83A0287D7DFFFFF0
(1648583723.082356) can1 18F00E00#00FBFFFFFFFFFFFF
(1648583723.087354) can1 0CF00300#D1000EFFFF5F617D
(1648583723.089661) can1 0CF00400#007D84B912000F84
(1648583723.095544) can1 18FEF100#FF0000FCFF001FCF
(1648583723.100907) can1 18FEDF00#83A0287D7DFFFFF0
(1648583723.101531) can1 18F00F00#00FBFFFFFFFFFFFF
(1648583723.107748) can1 0CF00300#D1000EFFFF5F617D
(1648583723.109559) can1 0CF00400#107D84B512000F84
(1648583723.110538) can1 0CF00A00#B10AA109FFFFFFFF
(1648583723.115642) can1 18FD7C00#E08B0100C34F03FF
(1648583723.116842) can1 1CFE9200#FFBC85FFFFFF0300
(1648583723.118613) can1 18FEFA0B#00FFFFFFFFFFFFFF
(1648583723.121293) can1 18FEDF00#83A0287D7DFFFFF0
(1648583723.127452) can1 0CF00300#D1000FFFFF5F617D
(1648583723.129348) can1 0CF00400#107D84BC12000F84
(1648583723.131135) can1 18F00E00#00FBFFFFFFFFFFFF
(1648583723.140887) can1 18FEDF00#83A0287D7DFFFFF0
(1648583723.147248) can1 0CF00300#D1000FFFFF5F607D
(1648583723.149347) can1 0CF00400#007D84C512000F84
(1648583723.151162) can1 18F00F00#00FBFFFFFFFFFFFF
(1648583723.161062) can1 18FEDF00#83A0287D7DFFFFF0
(1648583723.161653) can1 0CF00A00#B10ABD09FFFFFFFF
(1648583723.162311) can1 18FEF200#320000004008FAFF
(1648583723.166971) can1 0CF00300#D1000EFFFF5F607D
(1648583723.169259) can1 0CF00400#707D83C312000F84
(1648583723.170522) can1 18FEF121#C3FFFFC300FFFFF0
(1648583723.181343) can1 18FDB400#4C2CD62CFFFFFFFF
(1648583723.181930) can1 18FEDF00#83A0287D7DFFFFF0
(1648583723.182522) can1 18F00E00#00FBFFFFFFFFFFFF
(1648583723.187175) can1 0CF00300#D1000EFFFF5F617D
(1648583723.189546) can1 0CF00400#707D83C512000F84
(1648583723.195594) can1 18FEF100#FF0000FCFF001FCF
(1648583723.196262) can1 18FEEE00#68FF2F2AFFFFFFFF
(1648583723.201176) can1 18FEDF00#83A0287D7DFFFFF0
(1648583723.201795) can1 18F00F00#00FBFFFFFFFFFFFF
(1648583723.207377) can1 18FDB300#FFFFF02BFFFFFFFF
(1648583723.207970) can1 0CF00300#D1000EFFFF5F617D
(1648583723.209752) can1 0CF00400#707D83C612000F84
(1648583723.210736) can1 0CF00A00#B10ABD09FFFFFFFF
(1648583723.216244) can1 1CFE9200#FFC885FFFFFF0300
(1648583723.217424) can1 18FEFA0B#00FFFFFFFFFFFFFF
(1648583723.220944) can1 18FEDF00#83A0287D7DFFFFF0
(1648583723.226914) can1 0CF00300#D1000EFFFF5F617D
(1648583723.229265) can1 0CF00400#707D83C112000F84
(1648583723.230522) can1 18FDB200#FFFFFFFF0000FFFF
(1648583723.231761) can1 18F00E00#00FBFFFFFFFFFFFF
(1648583723.241159) can1 18FEDF00#83A0287D7DFFFFF0
(1648583723.247543) can1 0CF00300#D1000EFFFF5F617D
(1648583723.249469) can1 0CF00400#007D84BD12000F84
(1648583723.251754) can1 18F00F00#00FBFFFFFFFFFFFF
(1648583723.261156) can1 18FEDF00#83A0287D7DFFFFF0
(1648583723.261771) can1 0CF00A00#B10AC709FFFFFFFF
(1648583723.262340) can1 18FEF200#320000004008FAFF
(1648583723.267090) can1 0CF00300#D1000EFFFF5F617D
(1648583723.269084) can1 0CF00400#007D84BD12000F84
(1648583723.270521) can1 18FEF121#C3FFFFC300FFFFF0
(1648583723.281125) can1 18FEDF00#83A0287D7DFFFFF0
(1648583723.281780) can1 18F00E00#00FBFFFFFFFFFFFF
(1648583723.287611) can1 0CF00300#D1000EFFFF5F617D
(1648583723.288552) can1 18FEF500#C6FFFFF922FFFFFF
(1648583723.289673) can1 0CF00400#007D84B812000F84
(1648583723.296091) can1 18FEF100#FF0000FCFF001FCF
(1648583723.301956) can1 18FEDF00#83A0287D7DFFFFF0
(1648583723.302579) can1 18F00F00#00FBFFFFFFFFFFFF
(1648583723.307266) can1 0CF00300#D1000FFFFF5F617D
(1648583723.308445) can1 18FEA400#FFFF2426FFFF3229
(1648583723.309625) can1 0CF00400#107D84B712000F84
(1648583723.310525) can1 0CF00A00#B10AAB09FFFFFFFF
(1648583723.315708) can1 1CFE9200#FFC485FFFFFF0400
(1648583723.318069) can1 18FEFA0B#00FFFFFFFFFFFFFF
(1648583723.321286) can1 18FEDF00#83A0287D7DFFFFF0
(1648583723.327109) can1 0CF00300#D1000FFFFF5F607D
(1648583723.329347) can1 0CF00400#107D84BB12000F84
(1648583723.331090) can1 18F00E00#00FBFFFFFFFFFFFF
(1648583723.341340) can1 18FEDF00#83A0287D7DFFFFF0
(1648583723.347502) can1 0CF00300#D1000FFFFF5F607D
(1648583723.349397) can1 0CF00400#007D84C112000F84
(1648583723.351760) can1 18F00F00#00FBFFFFFFFFFFFF
(1648583723.361071) can1 18FEDF00#83A0287D7DFFFFF0
(1648583723.361664) can1 0CF00A00#B10ABD09FFFFFFFF
(1648583723.362314) can1 18FEF200#310000004008FAFF
(1648583723.366957) can1 0CF00300#D1000EFFFF5F607D
(1648583723.369255) can1 0CF00400#007D84C312000F84
(1648583723.370532) can1 18FEF121#C3FFFFC300FFFFF0
(1648583723.380852) can1 18FEDF00#83A0287D7DFFFFF0
(1648583723.382056) can1 18F00E00#00FBFFFFFFFFFFFF
(1648583723.387147) can1 0CF00300#D1000EFFFF5F607D
(1648583723.389488) can1 0CF00400#707D83C412000F84
(1648583723.395559) can1 18FEF100#FF0000FCFF001FCF
(1648583723.401164) can1 18FEDF00#83A0287D7DFFFFF0
(1648583723.401787) can1 18F00F00#00FBFFFFFFFFFFFF
(1648583723.405400) can1 18FEFA21#00004FFFFFFFFFFF
(1648583723.407277) can1 0CF00300#D1000EFFFF5F617D
(1648583723.409655) can1 0CF00400#707D83C212000F84
(1648583723.410550) can1 0CF00A00#B10ABD09FFFFFFFF
(1648583723.416238) can1 1CFE9200#FFCC85FFFFFF0400
(1648583723.416854) can1 18FEFA0B#00FFFFFFFFFFFFFF
(1648583723.420946) can1 18FEDF00#83A0287D7DFFFFF0
(1648583723.426891) can1 0CF00300#D1000EFFFF5F617D
(1648583723.429133) can1 0CF00400#007D84BC12000F84
(1648583723.431135) can1 18F00E00#00FBFFFFFFFFFFFF
(1648583723.441177) can1 18FEDF00#83A0287D7DFFFFF0
(1648583723.447137) can1 0CF00300#D1000EFFFF5F617D
(1648583723.449442) can1 0CF00400#007D84BD12000F84
(1648583723.451201) can1 18F00F00#00FBFFFFFFFFFFFF
(1648583723.461112) can1 18FEDF00#83A0287D7DFFFFF0
(1648583723.461745) can1 0CF00A00#B10ABD09FFFFFFFF
(1648583723.462326) can1 18FEF200#320000004008FAFF
(1648583723.466793) can1 0CF00300#D1000EFFFF5F617D
(1648583723.469040) can1 0CF00400#007D84BF12000F84
(1648583723.472297) can1 18FEF121#C3FFFFC300FFFFF0
(1648583723.480968) can1 18FEF721#FFFFFFFF1B01FFFF
(1648583723.482136) can1 18FEFA21#00004FFFFFFFFFFF
(1648583723.482712) can1 18FEDF00#83A0287D7DFFFFF0
(1648583723.483861) can1 18F00E00#00FBFFFFFFFFFFFF
(1648583723.488431) can1 0CF00300#D1000EFFFF5F617D
(1648583723.489782) can1 0CF00400#007D84B812000F84
(1648583723.495612) can1 18FEF100#FF0000FCFF001FCF
(1648583723.496255) can1 18FEEF00#FFFFFF3F087DFFFA
(1648583723.501386) can1 18FEDF00#83A0287D7DFFFFF0
(1648583723.502006) can1 18F00F00#00FBFFFFFFFFFFFF
(1648583723.505422) can1 18FEFA21#00004FFFFFFFFFFF
(1648583723.507258) can1 0CF00300#D1000EFFFF5F617D
(1648583723.509565) can1 0CF00400#107D84B412000F84
(1648583723.510528) can1 0CF00A00#B10AA109FFFFFFFF
(1648583723.515684) can1 1CFE9200#FFCC85FFFFFF0400
(1648583723.518068) can1 18FEFA0B#00FFFFFFFFFFFFFF
(1648583723.521178) can1 18FEDF00#83A0287D7DFFFFF0
(1648583723.527071) can1 0CF00300#D1000FFFFF5F607D
(1648583723.529274) can1 0CF00400#107D84BA12000F84
(1648583723.531100) can1 18F00E00#00FBFFFFFFFFFFFF
(1648583723.540910) can1 18FEDF00#83A0287D7DFFFFF0
(1648583723.542095) can1 18FEF600#FF004631FFFFFFFF
(1648583723.547271) can1 0CF00300#D1000FFFFF5F607D
(1648583723.549409) can1 0CF00400#007D84C312000F84
(1648583723.551153) can1 18F00F00#00FBFFFFFFFFFFFF
(1648583723.561061) can1 18FEDF00#83A0287D7DFFFFF0
(1648583723.561662) can1 0CF00A00#B10ABD09FFFFFFFF
(1648583723.562317) can1 18FEF200#320000004008FAFF
(1648583723.566976) can1 0CF00300#D1000EFFFF5F607D
(1648583723.569257) can1 0CF00400#007D84C212000F84
(1648583723.570544) can1 18FEF121#C3FFFFC300FFFFF0
(1648583723.580879) can1 18FEDF00#83A0287D7DFFFFF0
(1648583723.581500) can1 18F00E00#00FBFFFFFFFFFFFF
(1648583723.587120) can1 0CF00300#D1000EFFFF5F607D
(1648583723.589505) can1 0CF00400#007D84C312000F84
(1648583723.595555) can1 18FEF100#FF0000FCFF001FCF
(1648583723.601125) can1 18FEDF00#83A0287D7DFFFFF0
(1648583723.601787) can1 18F00F00#00FBFFFFFFFFFFFF
(1648583723.607301) can1 0CF00300#D1000EFFFF5F617D
(1648583723.609695) can1 0CF00400#707D83C512000F84
(1648583723.610673) can1 0CF00A00#B10ABD09FFFFFFFF
(1648583723.616829) can1 1CFE9200#FFC085FFFFFF0400
(1648583723.617456) can1 18FEFA0B#00FFFFFFFFFFFFFF
(1648583723.620965) can1 18FEDF00#83A0287D7DFFFFF0
(1648583723.626943) can1 0CF00300#D1000EFFFF5F617D
(1648583723.629160) can1 0CF00400#707D83C112000F84
(1648583723.631127) can1 18F00E00#00FBFFFFFFFFFFFF
(1648583723.641130) can1 18FEDF00#83A0287D7DFFFFF0
(1648583723.647408) can1 0CF00300#D1000EFFFF5F617D
(1648583723.649464) can1 0CF00400#007D84BF12000F84
(1648583723.651160) can1 18F00F00#00FBFFFFFFFFFFFF
(1648583723.661118) can1 18FEDF00#83A0287D7DFFFFF0
(1648583723.661760) can1 0CF00A00#B10ABD09FFFFFFFF
(1648583723.662326) can1 18FEF200#320000004008FAFF
(1648583723.666828) can1 0CF00300#D1000EFFFF5F617D
(1648583723.669043) can1 0CF00400#007D84BF12000F84
(1648583723.671115) can1 18FEF121#C3FFFFC300FFFFF0
(1648583723.681137) can1 18FDB400#502CD62CFFFFFFFF
(1648583723.681697) can1 18FEDF00#83A0287D7DFFFFF0
(1648583723.682332) can1 18F00E00#00FBFFFFFFFFFFFF
(1648583723.687614) can1 0CF00300#D1000EFFFF5F617D
(1648583723.689652) can1 0CF00400#007D84BA12000F84
(1648583723.695582) can1 18FEF100#FF0000FCFF001FCF
(1648583723.700874) can1 18FEDF00#83A0287D7DFFFFF0
(1648583723.701490) can1 18F00F00#00FBFFFFFFFFFFFF
(1648583723.707280) can1 18FDB300#FFFFF32BFFFFFFFF
(1648583723.707859) can1 0CF00300#D1000EFFFF5F617D
(1648583723.709645) can1 0CF00400#107D84B812000F84
(1648583723.710551) can1 0CF00A00#BA0AA109FFFFFFFF
(1648583723.715697) can1 1CFE9200#FFC085FFFFFF0400
(1648583723.718063) can1 18FEFA0B#00FFFFFFFFFFFFFF
(1648583723.721141) can1 18FEDF00#83A0287D7DFFFFF0
(1648583723.727118) can1 0CF00300#D1000FFFFF5F607D
(1648583723.729386) can1 0CF00400#107D84BD12000F84
(1648583723.730536) can1 18FDB200#FFFFFFFF0000FFFF
(1648583723.731783) can1 18F00E00#00FBFFFFFFFFFFFF
(1648583723.740851) can1 18FEDF00#83A0287D7DFFFFF0
(1648583723.747276) can1 0CF00300#D1000FFFFF5F607D
(1648583723.749378) can1 0CF00400#007D84C212000F84
(1648583723.751786) can1 18F00F00#00FBFFFFFFFFFFFF
(1648583723.761079) can1 18FEDF00#83A0287D7DFFFFF0
(1648583723.761672) can1 0CF00A00#BA0AB409FFFFFFFF
(1648583723.762311) can1 18FEF200#320000004008FAFF
(1648583723.766923) can1 18FEF700#FFFFFFFF1A01FFFF
(1648583723.768086) can1 0CF00300#D1000EFFFF5F607D
(1648583723.769262) can1 0CF00400#007D84C412000F84
(1648583723.771101) can1 18FEF121#C3FFFFC300FFFFF0
(1648583723.780898) can1 18FEDF00#83A0287D7DFFFFF0
(1648583723.781513) can1 18F00E00#00FBFFFFFFFFFFFF
(1648583723.785358) can1 18FEFA21#00004FFFFFFFFFFF
(1648583723.787127) can1 0CF00300#D1000EFFFF5F607D
(1648583723.789486) can1 0CF00400#707D83C712000F84
(1648583723.796107) can1 18FEF100#FF0000FCFF001FCF
(1648583723.801203) can1 18FEDF00#83A0287D7DFFFFF0
(1648583723.801822) can1 18F00F00#00FBFFFFFFFFFFFF
(1648583723.807298) can1 0CF00300#D1000EFFFF5F617D
(1648583723.809689) can1 0CF00400#707D83C612000F84
(1648583723.810573) can1 0CF00A00#B10ABD09FFFFFFFF
(1648583723.816257) can1 1CFE9200#FFC485FFFFFF0400
(1648583723.816881) can1 18FEFA0B#00FFFFFFFFFFFFFF
(1648583723.820962) can1 18FEDF00#83A0287D7DFFFFF0
(1648583723.826919) can1 0CF00300#D1000EFFFF5F617D
(1648583723.829144) can1 0CF00400#707D83C112000F84
(1648583723.831126) can1 18F00E00#00FBFFFFFFFFFFFF
(1648583723.841141) can1 18FEDF00#83A0287D7DFFFFF0
(1648583723.847532) can1 0CF00300#D1000EFFFF5F617D
(1648583723.849485) can1 0CF00400#707D83C012000F84
(1648583723.851171) can1 18F00F00#00FBFFFFFFFFFFFF
(1648583723.861095) can1 18FEDF00#83A0287D7DFFFFF0
(1648583723.861680) can1 0CF00A00#B10ABD09FFFFFFFF
(1648583723.862308) can1 18FEF200#320000004008FAFF
(1648583723.865048) can1 18FEFA21#00004FFFFFFFFFFF
(1648583723.866839) can1 0CF00300#D1000EFFFF5F617D
(1648583723.869060) can1 0CF00400#007D84C012000F84
(1648583723.871122) can1 18FEF121#C3FFFFC300FFFFF0
(1648583723.881143) can1 18FEDF00#83A0287D7DFFFFF0
(1648583723.881808) can1 18F00E00#00FBFFFFFFFFFFFF
(1648583723.887391) can1 0CF00300#D1000EFFFF5F617D
(1648583723.889706) can1 0CF00400#007D84BB12000F84
(1648583723.895567) can1 18FEF100#FF0000FCFF001FCF
(1648583723.900940) can1 18FEDF00#83A0287D7DFFFFF0
(1648583723.901566) can1 18F00F00#00FBFFFFFFFFFFFF
(1648583723.905438) can1 18FEFA21#00004FFFFFFFFFFF
(1648583723.907284) can1 0CF00300#D1000EFFFF5F617D
(1648583723.909630) can1 0CF00400#107D84B612000F84
(1648583723.910548) can1 0CF00A00#B10AAB09FFFFFFFF
(1648583723.915697) can1 1CFE9200#FFC085FFFFFF0300
(1648583723.918634) can1 18FEFA0B#00FFFFFFFFFFFFFF
(1648583723.921169) can1 18FEDF00#83A0287D7DFFFFF0
(1648583723.927224) can1 0CF00300#D1000FFFFF5F617D
(1648583723.929389) can1 0CF00400#107D84BB12000F84
(1648583723.931161) can1 18F00E00#00FBFFFFFFFFFFFF
(1648583723.940935) can1 18FEDF00#83A0287D7DFFFFF0
(1648583723.947905) can1 0CF00300#D1000FFFFF5F617D
(1648583723.949394) can1 0CF00400#007D84C412000F84
(1648583723.951182) can1 18F00F00#00FBFFFFFFFFFFFF
(1648583723.961076) can1 18FEDF00#83A0287D7DFFFFF0
(1648583723.961670) can1 0CF00A00#A80AC709FFFFFFFF
(1648583723.962309) can1 18FEF200#310000004008FAFF
(1648583723.967003) can1 0CF00300#D1000EFFFF5F607D
(1648583723.969299) can1 0CF00400#007D84C412000F84
(1648583723.971119) can1 18FEF121#C3FFFFC300FFFFF0
(1648583723.980898) can1 18FEDF00#83A0287D7DFFFFF0
(1648583723.981501) can1 18F00E00#00FBFFFFFFFFFFFF
(1648583723.987389) can1 0CF00300#D1000EFFFF5F607D
(1648583723.989618) can1 0CF00400#707D83C412000F84
(1648583723.995589) can1 18FEF100#FF0000FCFF001FCF
(1648583723.996175) can1 18FEEF00#FFFFFF3F077DFFFA
(1648583724.001419) can1 18FEDF00#83A0287D7DFFFFF0
(1648583724.002027) can1 18F00F00#00FBFFFFFFFFFFFF
(1648583724.007314) can1 0CF00300#D1000EFFFF5F617D
(1648583724.009712) can1 0CF00400#707D83C512000F84
(1648583724.010598) can1 0CF00A00#B10ABD09FFFFFFFF
(1648583724.016289) can1 1CFE9200#FFC485FFFFFF0300
(1648583724.016886) can1 18FEFA0B#00FFFFFFFFFFFFFF
(1648583724.020970) can1 18FEDF00#83A0287D7DFFFFF0
(1648583724.027083) can1 0CF00300#D1000EFFFF5F617D
(1648583724.029169) can1 0CF00400#707D83C112000F84
(1648583724.031712) can1 18F00E00#00FBFFFFFFFFFFFF
(1648583724.041192) can1 18FEDF00#83A0287D7DFFFFF0
(1648583724.042399) can1 18FEF600#FF004631FFFFFFFF
(1648583724.047195) can1 0CF00300#D1000EFFFF5F617D
(1648583724.049533) can1 0CF00400#007D84C012000F84
(1648583724.051171) can1 18F00F00#00FBFFFFFFFFFFFF
(1648583724.061115) can1 18FEDF00#83A0287D7DFFFFF0
(1648583724.061708) can1 0CF00A00#B10AC709FFFFFFFF
(1648583724.062319) can1 18FEF200#310000004108FAFF
(1648583724.066846) can1 0CF00300#D1000EFFFF5F617D
(1648583724.069078) can1 0CF00400#007D84BF12000F84
(1648583724.071123) can1 18FEF121#C3FFFFC300FFFFF0
(1648583724.081802) can1 18FEDF00#83A0287D7DFFFFF0
(1648583724.082411) can1 18F00E00#00FBFFFFFFFFFFFF
(1648583724.087599) can1 0CF00300#D1000EFFFF5F617D
(1648583724.089730) can1 0CF00400#107D84B912000F84
(1648583724.095578) can1 18FEF100#FF0000FCFF001FCF
(1648583724.100973) can1 18FEDF00#83A0287D7DFFFFF0
(1648583724.101576) can1 18F00F00#00FBFFFFFFFFFFFF
(1648583724.107786) can1 0CF00300#D1000FFFFF5F617D
(1648583724.109625) can1 0CF00400#107D84B912000F84
(1648583724.110558) can1 0CF00A00#B10A9809FFFFFFFF
(1648583724.115680) can1 18FD7C00#E08B0100C34F03FF
(1648583724.116894) can1 1CFE9200#FFC485FFFFFF0300
(1648583724.118656) can1 18FEFA0B#00FFFFFFFFFFFFFF
(1648583724.121254) can1 18FEDF00#83A0287D7DFFFFF0
(1648583724.127084) can1 0CF00300#D1000FFFFF5F607D
(1648583724.129345) can1 0CF00400#107D84BF12000F84
(1648583724.131132) can1 18F00E00#00FBFFFFFFFFFFFF
(1648583724.140927) can1 18FEDF00#83A0287D7DFFFFF0
(1648583724.147163) can1 0CF00300#D1000FFFFF5F607D
(1648583724.149375) can1 0CF00400#007D84C312000F84
(1648583724.151194) can1 18F00F00#00FBFFFFFFFFFFFF
(1648583724.161104) can1 18FEDF00#83A0287D7DFFFFF0
(1648583724.161690) can1 0CF00A00#B10AC709FFFFFFFF
(1648583724.162313) can1 18FEF200#320000004008FAFF
(1648583724.167031) can1 0CF00300#D1000EFFFF5F607D
(1648583724.169293) can1 0CF00400#007D84C312000F84
(1648583724.171147) can1 18FEF121#C3FFFFC300FFFFF0
(1648583724.180869) can1 18FDB400#502CD62CFFFFFFFF
(1648583724.181461) can1 18FEDF00#83A0287D7DFFFFF0
(1648583724.182043) can1 18F00E00#00FBFFFFFFFFFFFF
(1648583724.185384) can1 18FEFA21#00004FFFFFFFFFFF
(1648583724.187162) can1 0CF00300#D1000EFFFF5F617D
(1648583724.189517) can1 0CF00400#707D83C612000F84
(1648583724.195603) can1 18FEF100#FF0000FCFF001FCF
(1648583724.196163) can1 18FEEE00#68FF2F2AFFFFFFFF
(1648583724.201187) can1 18FEDF00#83A0287D7DFFFFF0
(1648583724.201811) can1 18F00F00#00FBFFFFFFFFFFFF
(1648583724.207344) can1 18FDB300#FFFFF02BFFFFFFFF
(1648583724.207927) can1 0CF00300#D1000EFFFF5F617D
(1648583724.209698) can1 0CF00400#707D83C612000F84
(1648583724.210634) can1 0CF00A00#B10AB409FFFFFFFF
(1648583724.216221) can1 1CFE9200#FFCC85FFFFFF0400
(1648583724.217405) can1 18FEFA0B#00FFFFFFFFFFFFFF
(1648583724.220969) can1 18FEDF00#83A0287D7DFFFFF0
(1648583724.226957) can1 0CF00300#D1000EFFFF5F617D
(1648583724.229173) can1 0CF00400#707D83BF12000F84
(1648583724.230592) can1 18FDB200#FFFFFFFF0000FFFF
(1648583724.231738) can1 18F00E00#00FBFFFFFFFFFFFF
(1648583724.241168) can1 18FEDF00#83A0287D7DFFFFF0
(1648583724.247475) can1 0CF00300#D1000EFFFF5F617D
(1648583724.249476) can1 0CF00400#007D84BC12000F84
(1648583724.251792) can1 18F00F00#00FBFFFFFFFFFFFF
(1648583724.261130) can1 18FEDF00#83A0287D7DFFFFF0
(1648583724.261719) can1 0CF00A00#B10ABD09FFFFFFFF
(1648583724.262319) can1 18FEF200#320000004008FAFF
(1648583724.266833) can1 0CF00300#D1000EFFFF5F617D
(1648583724.269017) can1 0CF00400#007D84BD12000F84
(1648583724.271123) can1 18FEF121#C3FFFFC300FFFFF0
(1648583724.281139) can1 18FEDF00#83A0287D7DFFFFF0
(1648583724.281765) can1 18F00E00#00FBFFFFFFFFFFFF
(1648583724.287392) can1 0CF00300#D1000EFFFF5F617D
(1648583724.288593) can1 18FEF500#C6FFFFF922FFFFFF
(1648583724.289699) can1 0CF00400#107D84B912000F84
(1648583724.296118) can1 18FEF100#FF0000FCFF001FCF
(1648583724.301990) can1 18FEDF00#83A0287D7DFFFFF0
(1648583724.302610) can1 18F00F00#00FBFFFFFFFFFFFF
(1648583724.307299) can1 0CF00300#D1000FFFFF5F617D
(1648583724.308483) can1 18FEA400#FFFF2426FFFF3429
(1648583724.309664) can1 0CF00400#107D84B412000F84
(1648583724.310564) can1 0CF00A00#BA0AA109FFFFFFFF
(1648583724.315749) can1 1CFE9200#FFC485FFFFFF0400
(1648583724.318092) can1 18FEFA0B#00FFFFFFFFFFFFFF
(1648583724.321171) can1 18FEDF00#83A0287D7DFFFFF0
(1648583724.327091) can1 0CF00300#D1000FFFFF5F607D
(1648583724.329302) can1 0CF00400#207D84BA12000F84
(1648583724.331133) can1 18F00E00#00FBFFFFFFFFFFFF
(1648583724.340050) can1 18FEFA21#00004FFFFFFFFFFF
(1648583724.340923) can1 18FEDF00#83A0287D7DFFFFF0
(1648583724.347473) can1 0CF00300#D1000FFFFF5F607D
(1648583724.349422) can1 0CF00400#007D84C312000F84
(1648583724.351811) can1 18F00F00#00FBFFFFFFFFFFFF
(1648583724.361091) can1 18FEDF00#83A0287D7DFFFFF0
(1648583724.361693) can1 0CF00A00#BA0AB409FFFFFFFF
(1648583724.362306) can1 18FEF200#310000004008FAFF
(1648583724.366991) can1 0CF00300#D1000FFFFF5F607D
(1648583724.369324) can1 0CF00400#707D83C712000F84
(1648583724.371154) can1 18FEF121#C3FFFFC300FFFFF0
(1648583724.380902) can1 18FEDF00#83A0287D7DFFFFF0
(1648583724.382091) can1 18F00E00#00FBFFFFFFFFFFFF
(1648583724.387153) can1 0CF00300#D1000EFFFF5F607D
(1648583724.389542) can1 0CF00400#707D83C712000F84
(1648583724.395610) can1 18FEF100#FF0000FCFF001FCF
(1648583724.401206) can1 18FEDF00#83A0287D7DFFFFF0
(1648583724.401825) can1 18F00F00#00FBFFFFFFFFFFFF
(1648583724.407303) can1 0CF00300#D1000EFFFF5F617D
(1648583724.409702) can1 0CF00400#707D83C612000F84
(1648583724.410606) can1 0CF00A00#BA0ABD09FFFFFFFF
(1648583724.416203) can1 1CFE9200#FFBC85FFFFFF0300
(1648583724.416825) can1 18FEFA0B#00FFFFFFFFFFFFFF
